 (1659795979.655707)  can1  18800401   [8]  0E EC 87 EC 87 F0 87 00
 (1659795979.655911)  can1  18840401   [8]  0E EC 87 EC 87 F0 87 00
 (1659795979.656187)  can1  18C00401   [8]  0E 61 30 8F 30 6C 30 00
 (1659795979.663877)  can1  18101203   [4]  5F 2E 8F 01
 (1659795979.679187)  can1  07773621   [8]  00 00 00 00 00 00 00 00
 (1659795979.679456)  can1  07773622   [8]  00 00 00 00 00 00 00 00
 (1659795979.679754)  can1  18000209   [8]  AB AA 02 00 00 00 00 00
 (1659795979.701876)  can1  18800401   [8]  0F 61 88 53 88 76 88 00
 (1659795979.702138)  can1  18840401   [8]  0F 61 88 53 88 76 88 00
 (1659795979.702508)  can1  18C00401   [8]  0F A9 30 70 30 A0 30 00
 (1659795979.725967)  can1  08041001   [8]  BA 03 F0 3D FB DE 1B 00
 (1659795979.741700)  can1  18800401   [8]  10 01 88 EC 87 F8 87 00
 (1659795979.741945)  can1  18840401   [8]  10 02 88 ED 87 F9 87 00
 (1659795979.742264)  can1  18C00401   [8]  10 65 30 8B 30 55 30 00
 (1659795979.779190)  can1  07773621   [8]  00 00 00 00 00 00 00 00
 (1659795979.779464)  can1  07773622   [8]  00 00 00 00 00 00 00 00
 (1659795979.779753)  can1  18000209   [8]  AB AA 02 00 00 00 00 00
 (1659795979.781682)  can1  18800401   [8]  11 04 88 61 88 44 88 00
 (1659795979.781981)  can1  18840401   [8]  11 05 88 62 88 45 88 00
 (1659795979.782230)  can1  18C00401   [8]  11 87 30 7F 30 48 30 00
 (1659795979.822952)  can1  18800401   [8]  12 A1 87 CA 87 BD 87 00
 (1659795979.823203)  can1  18840401   [8]  12 A2 87 CB 87 BE 87 00
 (1659795979.823478)  can1  18C00401   [8]  12 4D 30 8C 30 60 30 00
 (1659795979.835963)  can1  08041001   [8]  B8 03 F0 3D FB DE 1B 00
 (1659795979.862652)  can1  18800401   [8]  13 C4 87 C0 87 43 88 00
 (1659795979.862910)  can1  18840401   [8]  13 C5 87 C1 87 44 88 00
 (1659795979.863186)  can1  18C00401   [8]  13 9D 30 59 30 84 30 00
 (1659795979.878653)  can1  08101201   [8]  00 00 75 88 82 87 04 00
 (1659795979.879186)  can1  07773621   [8]  00 00 00 00 00 00 00 00
 (1659795979.879474)  can1  07773622   [8]  00 00 00 00 00 00 00 00
 (1659795979.879758)  can1  18000209   [8]  AB AA 02 00 00 00 00 00
 (1659795979.902643)  can1  18800401   [8]  14 34 88 D0 87 CB 87 00
 (1659795979.902903)  can1  18840401   [8]  14 35 88 D1 87 CC 87 00
 (1659795979.903192)  can1  18C00401   [8]  14 56 30 8D 30 4C 30 00
 (1659795979.945967)  can1  08041001   [8]  B8 03 F0 3D FB DE 1B 00
 (1659795979.946212)  can1  18800401   [8]  15 C7 87 CB 87 D2 87 00
 (1659795979.946541)  can1  18840401   [8]  15 C7 87 CB 87 D2 87 00
 (1659795979.946760)  can1  18C00401   [8]  15 79 30 59 30 76 30 00
 (1659795979.979208)  can1  07773621   [8]  00 00 00 00 00 00 00 00
 (1659795979.979481)  can1  07773622   [8]  00 00 00 00 00 00 00 00
 (1659795979.979775)  can1  18000209   [8]  AB AA 02 00 00 00 00 00
 (1659795979.985679)  can1  18800401   [8]  16 45 88 30 88 00 00 00
 (1659795979.985929)  can1  18840401   [8]  16 45 88 30 88 00 00 00
 (1659795979.986206)  can1  18C00401   [8]  16 51 30 66 30 10 27 00
 (1659795980.031889)  can1  18800401   [8]  00 9A 87 AD 87 82 87 00
 (1659795980.032139)  can1  18840401   [8]  00 9A 87 AD 87 82 87 00
 (1659795980.032421)  can1  18C00401   [8]  00 54 30 97 30 60 30 00
 (1659795980.055961)  can1  08041001   [8]  B4 03 F0 3D FB DE 1B 00
 (1659795980.063855)  can1  0404FF03   [1]  00
 (1659795980.071691)  can1  18800401   [8]  01 84 87 36 88 16 88 00
 (1659795980.071956)  can1  18840401   [8]  01 85 87 37 88 17 88 00
 (1659795980.072228)  can1  18C00401   [8]  01 9A 30 5D 30 7F 30 00
 (1659795980.079248)  can1  07773621   [8]  00 00 00 00 00 00 00 00
 (1659795980.079505)  can1  07773622   [8]  00 00 00 00 00 00 00 00
 (1659795980.079791)  can1  18000209   [8]  AB AA 02 00 00 00 00 00
 (1659795980.080340)  can1  0404FF07   [1]  00
 (1659795980.107362)  can1  0404FF02   [1]  00
 (1659795980.111685)  can1  18800401   [8]  02 B4 87 DA 87 DE 87 00
 (1659795980.111943)  can1  18840401   [8]  02 B5 87 DB 87 DF 87 00
 (1659795980.112246)  can1  18C00401   [8]  02 55 30 78 30 53 30 00
 (1659795980.147508)  can1  0404FF01   [1]  00
 (1659795980.152947)  can1  18800401   [8]  03 DF 87 E7 87 47 88 00
 (1659795980.153201)  can1  18840401   [8]  03 E0 87 E8 87 48 88 00
 (1659795980.153478)  can1  18C00401   [8]  03 7D 30 4C 30 62 30 00
 (1659795980.163863)  can1  18101203   [4]  69 2E 86 01
 (1659795980.165963)  can1  08041001   [8]  B4 03 F0 3D FB DE 1B 00
 (1659795980.179222)  can1  07773621   [8]  00 00 00 00 00 00 00 00
 (1659795980.179496)  can1  07773622   [8]  00 00 00 00 00 00 00 00
 (1659795980.179784)  can1  18000209   [8]  AB AA 02 00 00 00 00 00
 (1659795980.192662)  can1  18800401   [8]  04 FC 87 86 87 CF 87 00
 (1659795980.192913)  can1  18840401   [8]  04 FD 87 87 87 D0 87 00
 (1659795980.193190)  can1  18C00401   [8]  04 4B 30 59 30 86 30 00
 (1659795980.232657)  can1  18800401   [8]  05 DB 87 DA 87 D3 87 00
 (1659795980.232908)  can1  18840401   [8]  05 DC 87 DB 87 D4 87 00
 (1659795980.233184)  can1  18C00401   [8]  05 61 30 94 30 57 30 00
 (1659795980.251818)  can1  080F1201   [4]  BC 11 00 00
 (1659795980.275957)  can1  08041001   [8]  B2 03 F0 3D FB DE 1B 00
 (1659795980.276216)  can1  18800401   [8]  06 49 88 3A 88 DA 87 00
 (1659795980.276509)  can1  18840401   [8]  06 49 88 3A 88 DA 87 00
 (1659795980.276760)  can1  18C00401   [8]  06 9D 30 64 30 95 30 00
 (1659795980.279228)  can1  07773621   [8]  00 00 00 00 00 00 00 00
 (1659795980.279503)  can1  07773622   [8]  00 00 00 00 00 00 00 00
 (1659795980.279788)  can1  18000209   [8]  AB AA 02 00 00 00 00 00
 (1659795980.307458)  can1  08100302   [5]  00 0B 0A 00 01
 (1659795980.315670)  can1  18800401   [8]  07 DC 87 CD 87 D4 87 00
 (1659795980.315921)  can1  18840401   [8]  07 DC 87 CD 87 D4 87 00
 (1659795980.316208)  can1  18C00401   [8]  07 58 30 97 30 57 30 00
 (1659795980.361901)  can1  18800401   [8]  08 9D 87 4C 88 22 88 00
 (1659795980.362137)  can1  18840401   [8]  08 9D 87 4C 88 22 88 00
 (1659795980.362502)  can1  18C00401   [8]  08 86 30 52 30 7A 30 00
 (1659795980.379239)  can1  07773621   [8]  00 00 00 00 00 00 00 00
 (1659795980.379515)  can1  07773622   [8]  00 00 00 00 00 00 00 00
 (1659795980.379799)  can1  18000209   [8]  AB AA 02 00 00 00 00 00
 (1659795980.380456)  can1  08101201   [8]  00 00 75 88 80 87 04 00
 (1659795980.386078)  can1  08041001   [8]  B2 03 F0 3D FB DE 1B 00
 (1659795980.401704)  can1  18800401   [8]  09 A9 87 C6 87 C6 87 00
 (1659795980.401952)  can1  18840401   [8]  09 A9 87 C6 87 C6 87 00
 (1659795980.402222)  can1  18C00401   [8]  09 62 30 95 30 72 30 00
 (1659795980.441699)  can1  18800401   [8]  0A C7 87 CD 87 43 88 00
 (1659795980.441946)  can1  18840401   [8]  0A C7 87 CD 87 43 88 00
 (1659795980.442262)  can1  18C00401   [8]  0A B2 30 69 30 B8 30 00
 (1659795980.479251)  can1  07773621   [8]  00 00 00 00 00 00 00 00
 (1659795980.479519)  can1  07773622   [8]  00 00 00 00 00 00 00 00
 (1659795980.479805)  can1  18000209   [8]  AB AA 02 00 00 00 00 00
 (1659795980.482940)  can1  18800401   [8]  0B 37 88 D1 87 CF 87 00
 (1659795980.483198)  can1  18840401   [8]  0B 37 88 D1 87 CF 87 00
 (1659795980.483480)  can1  18C00401   [8]  0B 74 30 A9 30 7B 30 00
 (1659795980.495964)  can1  08041001   [8]  B2 03 F0 3D FB DE 1B 00
 (1659795980.522695)  can1  18800401   [8]  0C CB 87 D1 87 D3 87 00
 (1659795980.522909)  can1  18840401   [8]  0C CB 87 D1 87 D3 87 00
 (1659795980.523183)  can1  18C00401   [8]  0C 97 30 65 30 90 30 00
 (1659795980.562652)  can1  18800401   [8]  0D 44 88 2A 88 D7 87 00
 (1659795980.562905)  can1  18840401   [8]  0D 44 88 2A 88 D7 87 00
 (1659795980.563181)  can1  18C00401   [8]  0D 5E 30 7C 30 52 30 00
 (1659795980.579253)  can1  07773621   [8]  00 00 00 00 00 00 00 00
 (1659795980.579525)  can1  07773622   [8]  00 00 00 00 00 00 00 00
 (1659795980.579814)  can1  18000209   [8]  AB AA 02 00 00 00 00 00
 (1659795980.605976)  can1  08041001   [8]  B2 03 F0 3D FB DE 1B 00
 (1659795980.606216)  can1  18800401   [8]  0E E9 87 ED 87 EC 87 00
 (1659795980.606533)  can1  18840401   [8]  0E E9 87 ED 87 EC 87 00
 (1659795980.606765)  can1  18C00401   [8]  0E 8E 30 61 30 8F 30 00
 (1659795980.645678)  can1  18800401   [8]  0F F1 87 60 88 56 88 00
 (1659795980.645923)  can1  18840401   [8]  0F F1 87 60 88 56 88 00
 (1659795980.646203)  can1  18C00401   [8]  0F 6C 30 A9 30 70 30 00
 (1659795980.663883)  can1  18101203   [4]  64 2E 8B 01
 (1659795980.679271)  can1  07773621   [8]  00 00 00 00 00 00 00 00
 (1659795980.679539)  can1  07773622   [8]  00 00 00 00 00 00 00 00
 (1659795980.679822)  can1  18000209   [8]  AB AA 02 00 00 00 00 00
 (1659795980.691899)  can1  18800401   [8]  10 74 88 01 88 EC 87 00
 (1659795980.692148)  can1  18840401   [8]  10 74 88 01 88 EC 87 00
 (1659795980.692430)  can1  18C00401   [8]  10 A0 30 65 30 8B 30 00
 (1659795980.715967)  can1  08041001   [8]  B2 03 F0 3D FB DE 1B 00
 (1659795980.731713)  can1  18800401   [8]  11 F8 87 03 88 61 88 00
 (1659795980.731951)  can1  18840401   [8]  11 F8 87 03 88 61 88 00
 (1659795980.732232)  can1  18C00401   [8]  11 55 30 87 30 7F 30 00
 (1659795980.771698)  can1  18800401   [8]  12 45 88 9E 87 CB 87 00
 (1659795980.771946)  can1  18840401   [8]  12 45 88 9E 87 CB 87 00
 (1659795980.772223)  can1  18C00401   [8]  12 48 30 4D 30 8C 30 00
 (1659795980.779274)  can1  07773621   [8]  00 00 00 00 00 00 00 00
 (1659795980.779543)  can1  07773622   [8]  00 00 00 00 00 00 00 00
 (1659795980.779861)  can1  18000209   [8]  AB AA 02 00 00 00 00 00
 (1659795980.812940)  can1  18800401   [8]  13 C1 87 C2 87 C4 87 00
 (1659795980.813242)  can1  18840401   [8]  13 C1 87 C2 87 C4 87 00
 (1659795980.813483)  can1  18C00401   [8]  13 60 30 9D 30 59 30 00
 (1659795980.825976)  can1  08041001   [8]  B2 03 F0 3D FB DE 1B 00
 (1659795980.852665)  can1  18800401   [8]  14 45 88 32 88 D2 87 00
 (1659795980.852908)  can1  18840401   [8]  14 45 88 32 88 D2 87 00
 (1659795980.853185)  can1  18C00401   [8]  14 84 30 56 30 8D 30 00
 (1659795980.879271)  can1  07773621   [8]  00 00 00 00 00 00 00 00
 (1659795980.879552)  can1  07773622   [8]  00 00 00 00 00 00 00 00
 (1659795980.879838)  can1  18000209   [8]  AB AA 02 00 00 00 00 00
 (1659795980.880646)  can1  08101201   [8]  00 00 76 88 81 87 02 00
 (1659795980.892674)  can1  18800401   [8]  15 CA 87 C7 87 CB 87 00
 (1659795980.892903)  can1  18840401   [8]  15 CA 87 C7 87 CB 87 00
 (1659795980.893192)  can1  18C00401   [8]  15 4C 30 79 30 5A 30 00
 (1659795980.935979)  can1  08041001   [8]  B0 03 F0 3D FB DE 1B 00
 (1659795980.936229)  can1  18800401   [8]  16 CF 87 45 88 2F 88 00
 (1659795980.936510)  can1  18840401   [8]  16 CF 87 45 88 2F 88 00
 (1659795980.936784)  can1  18C00401   [8]  16 76 30 51 30 66 30 00
 (1659795980.975717)  can1  18800401   [8]  00 DB 87 9B 87 AB 87 00
 (1659795980.975915)  can1  18840401   [8]  00 DB 87 9B 87 AB 87 00
 (1659795980.976193)  can1  18C00401   [8]  00 8A 30 54 30 97 30 00
 (1659795980.979294)  can1  07773621   [8]  00 00 00 00 00 00 00 00
 (1659795980.979565)  can1  07773622   [8]  00 00 00 00 00 00 00 00
 (1659795980.979846)  can1  18000209   [8]  AB AA 02 00 00 00 00 00
 (1659795981.007457)  can1  08100302   [5]  00 0B 0A 00 01
 (1659795981.021908)  can1  18800401   [8]  01 80 87 83 87 35 88 00
 (1659795981.022152)  can1  18840401   [8]  01 80 87 83 87 35 88 00
 (1659795981.022549)  can1  18C00401   [8]  01 60 30 9A 30 5D 30 00
 (1659795981.045972)  can1  08041001   [8]  AC 03 F0 3D FB DE 1B 00
 (1659795981.061693)  can1  18800401   [8]  02 16 88 B3 87 DB 87 00
 (1659795981.061948)  can1  18840401   [8]  02 17 88 B4 87 DC 87 00
 (1659795981.062250)  can1  18C00401   [8]  02 7F 30 55 30 78 30 00
 (1659795981.063829)  can1  0404FF03   [1]  00
 (1659795981.079317)  can1  07773621   [8]  00 00 00 00 00 00 00 00
 (1659795981.079588)  can1  07773622   [8]  00 00 00 00 00 00 00 00
 (1659795981.079874)  can1  18000209   [8]  AB AA 02 00 00 00 00 00
 (1659795981.080399)  can1  0404FF07   [1]  00
 (1659795981.101709)  can1  18800401   [8]  03 DE 87 DF 87 E6 87 00
 (1659795981.101958)  can1  18840401   [8]  03 DF 87 E0 87 E7 87 00
 (1659795981.102290)  can1  18C00401   [8]  03 53 30 7D 30 4D 30 00
 (1659795981.107368)  can1  0404FF02   [1]  00
 (1659795981.142942)  can1  18800401   [8]  04 48 88 FB 87 86 87 00
 (1659795981.143198)  can1  18840401   [8]  04 49 88 FC 87 87 87 00
 (1659795981.143472)  can1  18C00401   [8]  04 62 30 4B 30 59 30 00
 (1659795981.147523)  can1  0404FF01   [1]  00
 (1659795981.156041)  can1  08041001   [8]  AC 03 00 3E FB DE 1B 00
 (1659795981.163884)  can1  18101203   [4]  64 2E 8F 01
 (1659795981.179301)  can1  07773621   [8]  00 00 00 00 00 00 00 00
 (1659795981.179578)  can1  07773622   [8]  00 00 00 00 00 00 00 00
 (1659795981.179866)  can1  18000209   [8]  AB AA 02 00 00 00 00 00
 (1659795981.182661)  can1  18800401   [8]  05 CF 87 DA 87 DA 87 00
 (1659795981.182926)  can1  18840401   [8]  05 CF 87 DA 87 DA 87 00
 (1659795981.183201)  can1  18C00401   [8]  05 86 30 61 30 94 30 00
 (1659795981.222667)  can1  18800401   [8]  06 D3 87 4A 88 39 88 00
 (1659795981.223209)  can1  18840401   [8]  06 D3 87 4A 88 39 88 00
 (1659795981.223246)  can1  18C00401   [8]  06 57 30 9D 30 64 30 00
 (1659795981.252898)  can1  080F1201   [4]  A4 10 00 00
 (1659795981.265981)  can1  08041001   [8]  AC 03 00 3E FB DE 1B 00
 (1659795981.266224)  can1  18800401   [8]  07 D9 87 DB 87 CE 87 00
 (1659795981.266563)  can1  18840401   [8]  07 D9 87 DB 87 CE 87 00
 (1659795981.266775)  can1  18C00401   [8]  07 95 30 58 30 97 30 00
 (1659795981.279309)  can1  07773621   [8]  00 00 00 00 00 00 00 00
 (1659795981.279610)  can1  07773622   [8]  00 00 00 00 00 00 00 00
 (1659795981.279866)  can1  18000209   [8]  AB AA 02 00 00 00 00 00
 (1659795981.305679)  can1  18800401   [8]  08 D3 87 9F 87 4C 88 00
 (1659795981.305926)  can1  18840401   [8]  08 D3 87 9F 87 4C 88 00
 (1659795981.306243)  can1  18C00401   [8]  08 57 30 86 30 52 30 00
 (1659795981.351898)  can1  18800401   [8]  09 23 88 A8 87 C6 87 00
 (1659795981.352146)  can1  18840401   [8]  09 23 88 A8 87 C6 87 00
 (1659795981.352421)  can1  18C00401   [8]  09 7A 30 62 30 95 30 00
 (1659795981.375973)  can1  08041001   [8]  AC 03 00 3E FB DE 1B 00
 (1659795981.379320)  can1  07773621   [8]  00 00 00 00 00 00 00 00
 (1659795981.379590)  can1  07773622   [8]  00 00 00 00 00 00 00 00
 (1659795981.379879)  can1  18000209   [8]  AB AA 02 00 00 00 00 00
 (1659795981.381685)  can1  08101201   [8]  00 00 74 88 81 87 03 00
 (1659795981.391703)  can1  18800401   [8]  0A C6 87 C7 87 CD 87 00
 (1659795981.391958)  can1  18840401   [8]  0A C6 87 C7 87 CD 87 00
 (1659795981.392227)  can1  18C00401   [8]  0A 72 30 B2 30 6A 30 00
 (1659795981.431700)  can1  18800401   [8]  0B 43 88 36 88 D0 87 00
 (1659795981.431953)  can1  18840401   [8]  0B 43 88 36 88 D0 87 00
 (1659795981.432224)  can1  18C00401   [8]  0B B7 30 74 30 A9 30 00
 (1659795981.472956)  can1  18800401   [8]  0C CE 87 CB 87 D1 87 00
 (1659795981.473201)  can1  18840401   [8]  0C CE 87 CB 87 D1 87 00
 (1659795981.473477)  can1  18C00401   [8]  0C 7B 30 97 30 65 30 00
 (1659795981.479333)  can1  07773621   [8]  00 00 00 00 00 00 00 00
 (1659795981.479603)  can1  07773622   [8]  00 00 00 00 00 00 00 00
 (1659795981.479919)  can1  18000209   [8]  AB AA 02 00 00 00 00 00
 (1659795981.485979)  can1  08041001   [8]  AA 03 00 3E FB DE 1B 00
 (1659795981.512675)  can1  18800401   [8]  0D D2 87 44 88 2B 88 00
 (1659795981.512912)  can1  18840401   [8]  0D D3 87 45 88 2C 88 00
 (1659795981.513196)  can1  18C00401   [8]  0D 90 30 5E 30 7C 30 00
 (1659795981.552658)  can1  18800401   [8]  0E D9 87 E9 87 ED 87 00
 (1659795981.552917)  can1  18840401   [8]  0E DA 87 EA 87 EE 87 00
 (1659795981.553233)  can1  18C00401   [8]  0E 52 30 8E 30 61 30 00
 (1659795981.579334)  can1  07773621   [8]  00 00 00 00 00 00 00 00
 (1659795981.579627)  can1  07773622   [8]  00 00 00 00 00 00 00 00
 (1659795981.579896)  can1  18000209   [8]  AB AA 02 00 00 00 00 00
 (1659795981.595981)  can1  08041001   [8]  AA 03 00 3E FB DE 1B 00
 (1659795981.596227)  can1  18800401   [8]  0F ED 87 F1 87 60 88 00
 (1659795981.596548)  can1  18840401   [8]  0F ED 87 F1 87 60 88 00
 (1659795981.596788)  can1  18C00401   [8]  0F 8F 30 6C 30 A9 30 00
 (1659795981.635678)  can1  18800401   [8]  10 54 88 76 88 02 88 00
 (1659795981.635931)  can1  18840401   [8]  10 54 88 76 88 02 88 00
 (1659795981.636210)  can1  18C00401   [8]  10 6F 30 A0 30 65 30 00
 (1659795981.663903)  can1  18101203   [4]  64 2E 86 01
 (1659795981.679348)  can1  07773621   [8]  00 00 00 00 00 00 00 00
 (1659795981.679616)  can1  07773622   [8]  00 00 00 00 00 00 00 00
 (1659795981.679913)  can1  18000209   [8]  AB AA 02 00 00 00 00 00
 (1659795981.681897)  can1  18800401   [8]  11 EC 87 F7 87 03 88 00
 (1659795981.682159)  can1  18840401   [8]  11 EC 87 F7 87 03 88 00
 (1659795981.682601)  can1  18C00401   [8]  11 8B 30 55 30 87 30 00
 (1659795981.705981)  can1  08041001   [8]  A8 03 00 3E FB DE 1B 00
 (1659795981.707449)  can1  08100302   [5]  00 0B 0A 00 01
 (1659795981.721706)  can1  18800401   [8]  12 61 88 44 88 A1 87 00
 (1659795981.721949)  can1  18840401   [8]  12 62 88 45 88 A2 87 00
 (1659795981.722226)  can1  18C00401   [8]  12 7F 30 48 30 4D 30 00
 (1659795981.761716)  can1  18800401   [8]  13 CB 87 C3 87 C4 87 00
 (1659795981.761958)  can1  18840401   [8]  13 CC 87 C4 87 C5 87 00
 (1659795981.762237)  can1  18C00401   [8]  13 8C 30 60 30 9D 30 00
 (1659795981.779352)  can1  07773621   [8]  00 00 00 00 00 00 00 00
 (1659795981.779624)  can1  07773622   [8]  00 00 00 00 00 00 00 00
 (1659795981.779930)  can1  18000209   [8]  AB AA 02 00 00 00 00 00
 (1659795981.802950)  can1  18800401   [8]  14 C2 87 43 88 34 88 00
 (1659795981.803203)  can1  18840401   [8]  14 C3 87 44 88 35 88 00
 (1659795981.803478)  can1  18C00401   [8]  14 59 30 84 30 56 30 00
 (1659795981.815970)  can1  08041001   [8]  A8 03 00 3E FB DE 1B 00
 (1659795981.842662)  can1  18800401   [8]  15 D1 87 CA 87 C8 87 00
 (1659795981.842923)  can1  18840401   [8]  15 D2 87 CB 87 C9 87 00
 (1659795981.843205)  can1  18C00401   [8]  15 8D 30 4C 30 79 30 00
 (1659795981.879359)  can1  07773621   [8]  00 00 00 00 00 00 00 00
 (1659795981.879633)  can1  07773622   [8]  00 00 00 00 00 00 00 00
 (1659795981.879923)  can1  18000209   [8]  AB AA 02 00 00 00 00 00
 (1659795981.882660)  can1  08101201   [8]  00 00 75 88 82 87 02 00
 (1659795981.882925)  can1  18800401   [8]  16 CB 87 D0 87 45 88 00
 (1659795981.883210)  can1  18840401   [8]  16 CC 87 D1 87 46 88 00
 (1659795981.883631)  can1  18C00401   [8]  16 5A 30 76 30 51 30 00
 (1659795981.925983)  can1  08041001   [8]  A8 03 00 3E FB DE 1B 00
 (1659795981.926246)  can1  18800401   [8]  17 30 88 00 00 00 00 00
 (1659795981.926571)  can1  18840401   [8]  17 30 88 00 00 00 00 00
 (1659795981.926810)  can1  18C00401   [8]  17 66 30 10 27 10 27 00
 (1659795981.965681)  can1  18800401   [8]  00 AC 87 82 87 83 87 00
 (1659795981.965937)  can1  18840401   [8]  00 AC 87 82 87 83 87 00
 (1659795981.966242)  can1  18C00401   [8]  00 97 30 60 30 9B 30 00
 (1659795981.979369)  can1  07773621   [8]  00 00 00 00 00 00 00 00
 (1659795981.979643)  can1  07773622   [8]  00 00 00 00 00 00 00 00
 (1659795981.979937)  can1  18000209   [8]  AB AA 02 00 00 00 00 00
 (1659795982.011908)  can1  18800401   [8]  01 36 88 18 88 B2 87 00
 (1659795982.012151)  can1  18840401   [8]  01 36 88 18 88 B2 87 00
 (1659795982.012432)  can1  18C00401   [8]  01 5D 30 7F 30 55 30 00
 (1659795982.035992)  can1  08041001   [8]  A8 03 00 3E FB DE 1B 00
 (1659795982.051714)  can1  18800401   [8]  02 DB 87 DE 87 DE 87 00
 (1659795982.051964)  can1  18840401   [8]  02 DC 87 DF 87 DF 87 00
 (1659795982.052240)  can1  18C00401   [8]  02 78 30 53 30 7D 30 00
 (1659795982.063847)  can1  0404FF03   [1]  00
 (1659795982.079395)  can1  07773621   [8]  00 00 00 00 00 00 00 00
 (1659795982.079667)  can1  07773622   [8]  00 00 00 00 00 00 00 00
 (1659795982.079983)  can1  18000209   [8]  AB AA 02 00 00 00 00 00
 (1659795982.080461)  can1  0404FF07   [1]  00
 (1659795982.091701)  can1  18800401   [8]  03 E6 87 48 88 FC 87 00
 (1659795982.091958)  can1  18840401   [8]  03 E7 87 49 88 FD 87 00
 (1659795982.092260)  can1  18C00401   [8]  03 4C 30 62 30 4B 30 00
 (1659795982.107376)  can1  0404FF02   [1]  00
 (1659795982.132963)  can1  18800401   [8]  04 86 87 CF 87 DA 87 00
 (1659795982.133211)  can1  18840401   [8]  04 87 87 D0 87 DB 87 00
 (1659795982.133484)  can1  18C00401   [8]  04 59 30 86 30 61 30 00
 (1659795982.145988)  can1  08041001   [8]  A8 03 00 3E FB DE 1B 00
 (1659795982.146637)  can1  0404FF01   [1]  00
 (1659795982.163905)  can1  18101203   [4]  64 2E 98 01
 (1659795982.172677)  can1  18800401   [8]  05 DA 87 D3 87 4A 88 00
 (1659795982.172926)  can1  18840401   [8]  05 DA 87 D3 87 4A 88 00
 (1659795982.173196)  can1  18C00401   [8]  05 94 30 57 30 9D 30 00
 (1659795982.179380)  can1  07773621   [8]  00 00 00 00 00 00 00 00
 (1659795982.179659)  can1  07773622   [8]  00 00 00 00 00 00 00 00
 (1659795982.179943)  can1  18000209   [8]  AB AA 02 00 00 00 00 00
 (1659795982.212669)  can1  18800401   [8]  06 3A 88 D9 87 DB 87 00
 (1659795982.212913)  can1  18840401   [8]  06 3A 88 D9 87 DB 87 00
 (1659795982.213194)  can1  18C00401   [8]  06 64 30 95 30 58 30 00
 (1659795982.255990)  can1  08041001   [8]  A6 03 00 3E FB DE 1B 00
 (1659795982.256169)  can1  080F1201   [4]  68 10 00 00
 (1659795982.256452)  can1  18800401   [8]  07 CE 87 D3 87 9F 87 00
 (1659795982.256734)  can1  18840401   [8]  07 CF 87 D4 87 A0 87 00
 (1659795982.257006)  can1  18C00401   [8]  07 97 30 57 30 86 30 00
 (1659795982.279401)  can1  07773621   [8]  00 00 00 00 00 00 00 00
 (1659795982.279667)  can1  07773622   [8]  00 00 00 00 00 00 00 00
 (1659795982.279954)  can1  18000209   [8]  AB AA 02 00 00 00 00 00
 (1659795982.295674)  can1  18800401   [8]  08 4D 88 23 88 A4 87 00
 (1659795982.295931)  can1  18840401   [8]  08 4E 88 24 88 A5 87 00
 (1659795982.296197)  can1  18C00401   [8]  08 52 30 7A 30 62 30 00
 (1659795982.341912)  can1  18800401   [8]  09 C6 87 C6 87 C7 87 00
 (1659795982.342159)  can1  18840401   [8]  09 C7 87 C7 87 C8 87 00
 (1659795982.342592)  can1  18C00401   [8]  09 95 30 72 30 B2 30 00
 (1659795982.365991)  can1  08041001   [8]  A6 03 00 3E FB DE 1B 00
 (1659795982.379396)  can1  07773621   [8]  00 00 00 00 00 00 00 00
 (1659795982.379673)  can1  07773622   [8]  00 00 00 00 00 00 00 00
 (1659795982.379961)  can1  18000209   [8]  AB AA 02 00 00 00 00 00
 (1659795982.381701)  can1  18800401   [8]  0A CE 87 44 88 36 88 00
 (1659795982.381961)  can1  18840401   [8]  0A CF 87 45 88 37 88 00
 (1659795982.382242)  can1  18C00401   [8]  0A 6A 30 B7 30 74 30 00
 (1659795982.383672)  can1  08101201   [8]  00 00 76 88 83 87 02 00
 (1659795982.407456)  can1  08100302   [5]  00 0B 0A 00 01
 (1659795982.421717)  can1  18800401   [8]  0B D0 87 CE 87 CB 87 00
 (1659795982.421963)  can1  18840401   [8]  0B D1 87 CF 87 CC 87 00
 (1659795982.422238)  can1  18C00401   [8]  0B A9 30 7B 30 97 30 00
 (1659795982.462954)  can1  18800401   [8]  0C D2 87 D2 87 45 88 00
 (1659795982.463212)  can1  18840401   [8]  0C D3 87 D3 87 46 88 00
 (1659795982.463489)  can1  18C00401   [8]  0C 64 30 91 30 5E 30 00
 (1659795982.475989)  can1  08041001   [8]  A6 03 00 3E FB DE 1B 00
 (1659795982.479413)  can1  07773621   [8]  00 00 00 00 00 00 00 00
 (1659795982.479680)  can1  07773622   [8]  00 00 00 00 00 00 00 00
 (1659795982.480029)  can1  18000209   [8]  AB AA 02 00 00 00 00 00
 (1659795982.502664)  can1  18800401   [8]  0D 2B 88 D6 87 E9 87 00
 (1659795982.502922)  can1  18840401   [8]  0D 2C 88 D7 87 EA 87 00
 (1659795982.503222)  can1  18C00401   [8]  0D 7C 30 52 30 8E 30 00
 (1659795982.542663)  can1  18800401   [8]  0E ED 87 ED 87 F2 87 00
 (1659795982.542924)  can1  18840401   [8]  0E EE 87 EE 87 F3 87 00
 (1659795982.543232)  can1  18C00401   [8]  0E 61 30 8F 30 6C 30 00
 (1659795982.579419)  can1  07773621   [8]  00 00 00 00 00 00 00 00
 (1659795982.579694)  can1  07773622   [8]  00 00 00 00 00 00 00 00
 (1659795982.579974)  can1  18000209   [8]  AB AA 02 00 00 00 00 00
 (1659795982.585980)  can1  08041001   [8]  A6 03 00 3E FB DE 1B 00
 (1659795982.586235)  can1  18800401   [8]  0F 61 88 54 88 75 88 00
 (1659795982.586522)  can1  18840401   [8]  0F 61 88 54 88 75 88 00
 (1659795982.586781)  can1  18C00401   [8]  0F A9 30 6F 30 A0 30 00
 (1659795982.625699)  can1  18800401   [8]  10 02 88 EC 87 F8 87 00
 (1659795982.625943)  can1  18840401   [8]  10 02 88 EC 87 F8 87 00
 (1659795982.626223)  can1  18C00401   [8]  10 65 30 8B 30 55 30 00
 (1659795982.663911)  can1  18101203   [4]  69 2E 94 01
 (1659795982.671949)  can1  18800401   [8]  11 04 88 61 88 44 88 00
 (1659795982.672157)  can1  18840401   [8]  11 04 88 61 88 44 88 00
 (1659795982.672436)  can1  18C00401   [8]  11 87 30 7F 30 48 30 00
 (1659795982.679426)  can1  07773621   [8]  00 00 00 00 00 00 00 00
 (1659795982.679699)  can1  07773622   [8]  00 00 00 00 00 00 00 00
 (1659795982.679983)  can1  18000209   [8]  AB AA 02 00 00 00 00 00
 (1659795982.695979)  can1  08041001   [8]  A4 03 F0 3D FB DE 1B 00
 (1659795982.711733)  can1  18800401   [8]  12 A0 87 CC 87 C6 87 00
 (1659795982.711968)  can1  18840401   [8]  12 A0 87 CC 87 C6 87 00
 (1659795982.712246)  can1  18C00401   [8]  12 4E 30 8B 30 60 30 00
 (1659795982.751711)  can1  18800401   [8]  13 C4 87 C2 87 42 88 00
 (1659795982.751966)  can1  18840401   [8]  13 C4 87 C2 87 42 88 00
 (1659795982.752241)  can1  18C00401   [8]  13 9D 30 59 30 84 30 00
 (1659795982.779432)  can1  07773621   [8]  00 00 00 00 00 00 00 00
 (1659795982.779705)  can1  07773622   [8]  00 00 00 00 00 00 00 00
 (1659795982.780008)  can1  18000209   [8]  AB AA 02 00 00 00 00 00
 (1659795982.792969)  can1  18800401   [8]  14 31 88 D2 87 CA 87 00
 (1659795982.793209)  can1  18840401   [8]  14 31 88 D2 87 CA 87 00
 (1659795982.793484)  can1  18C00401   [8]  14 56 30 8D 30 4C 30 00
 (1659795982.805982)  can1  08041001   [8]  A4 03 F0 3D FB DE 1B 00
 (1659795982.832672)  can1  18800401   [8]  15 C8 87 CB 87 D1 87 00
 (1659795982.832926)  can1  18840401   [8]  15 C9 87 CC 87 D2 87 00
 (1659795982.833212)  can1  18C00401   [8]  15 79 30 5A 30 76 30 00
 (1659795982.872681)  can1  18800401   [8]  16 44 88 30 88 00 00 00
 (1659795982.872938)  can1  18840401   [8]  16 45 88 31 88 00 00 00
 (1659795982.873214)  can1  18C00401   [8]  16 51 30 66 30 10 27 00
 (1659795982.879442)  can1  07773621   [8]  00 00 00 00 00 00 00 00
 (1659795982.879753)  can1  07773622   [8]  00 00 00 00 00 00 00 00
 (1659795982.880000)  can1  18000209   [8]  AB AA 02 00 00 00 00 00
 (1659795982.886666)  can1  08101201   [8]  00 00 74 88 82 87 04 00
 (1659795982.915987)  can1  08041001   [8]  A0 03 F0 3D FB DE 1B 00
 (1659795982.916238)  can1  18800401   [8]  00 9B 87 AC 87 81 87 00
 (1659795982.916510)  can1  18840401   [8]  00 9D 87 AE 87 83 87 00
 (1659795982.916790)  can1  18C00401   [8]  00 53 30 97 30 60 30 00
 (1659795982.955719)  can1  18800401   [8]  01 83 87 36 88 17 88 00
 (1659795982.955939)  can1  18840401   [8]  01 85 87 38 88 19 88 00
 (1659795982.956221)  can1  18C00401   [8]  01 9A 30 5D 30 7F 30 00
 (1659795982.979452)  can1  07773621   [8]  00 00 00 00 00 00 00 00
 (1659795982.979726)  can1  07773622   [8]  00 00 00 00 00 00 00 00
 (1659795982.980045)  can1  18000209   [8]  AB AA 02 00 00 00 00 00
 (1659795983.001904)  can1  18800401   [8]  02 B4 87 DA 87 DE 87 00
 (1659795983.002162)  can1  18840401   [8]  02 B6 87 DC 87 E0 87 00
 (1659795983.002545)  can1  18C00401   [8]  02 55 30 78 30 53 30 00
 (1659795983.025978)  can1  08041001   [8]  A0 03 F0 3D FB DE 1B 00
 (1659795983.041725)  can1  18800401   [8]  03 DF 87 E6 87 49 88 00
 (1659795983.041970)  can1  18840401   [8]  03 DF 87 E6 87 49 88 00
 (1659795983.042252)  can1  18C00401   [8]  03 7D 30 4C 30 62 30 00
 (1659795983.063853)  can1  0404FF03   [1]  00
 (1659795983.079475)  can1  07773621   [8]  00 00 00 00 00 00 00 00
 (1659795983.079747)  can1  07773622   [8]  00 00 00 00 00 00 00 00
 (1659795983.080050)  can1  18000209   [8]  AB AA 02 00 00 00 00 00
 (1659795983.080529)  can1  0404FF07   [1]  00
 (1659795983.081719)  can1  18800401   [8]  04 FB 87 88 87 CF 87 00
 (1659795983.081982)  can1  18840401   [8]  04 FB 87 88 87 CF 87 00
 (1659795983.082255)  can1  18C00401   [8]  04 4B 30 59 30 86 30 00
 (1659795983.107380)  can1  0404FF02   [1]  00
 (1659795983.107587)  can1  08100302   [5]  00 0A 0A 00 01
 (1659795983.123047)  can1  18800401   [8]  05 DB 87 DA 87 D4 87 00
 (1659795983.123212)  can1  18840401   [8]  05 DB 87 DA 87 D4 87 00
 (1659795983.123487)  can1  18C00401   [8]  05 61 30 94 30 57 30 00
 (1659795983.135979)  can1  08041001   [8]  A0 03 F0 3D FB DE 1B 00
 (1659795983.146732)  can1  0404FF01   [1]  00
 (1659795983.162672)  can1  18800401   [8]  06 4A 88 39 88 DA 87 00
 (1659795983.162927)  can1  18840401   [8]  06 4B 88 3A 88 DB 87 00
 (1659795983.163227)  can1  18C00401   [8]  06 9D 30 64 30 95 30 00
 (1659795983.163893)  can1  18101203   [4]  5F 2E 82 01
 (1659795983.179471)  can1  07773621   [8]  00 00 00 00 00 00 00 00
 (1659795983.179737)  can1  07773622   [8]  00 00 00 00 00 00 00 00
 (1659795983.180051)  can1  18000209   [8]  AB AA 02 00 00 00 00 00
 (1659795983.202678)  can1  18800401   [8]  07 DB 87 CE 87 D3 87 00
 (1659795983.202942)  can1  18840401   [8]  07 DC 87 CF 87 D4 87 00
 (1659795983.203239)  can1  18C00401   [8]  07 58 30 97 30 57 30 00
 (1659795983.245994)  can1  08041001   [8]  A0 03 F0 3D FB DE 1B 00
 (1659795983.246239)  can1  18800401   [8]  08 9F 87 4C 88 23 88 00
 (1659795983.246583)  can1  18840401   [8]  08 9F 87 4C 88 23 88 00
 (1659795983.246790)  can1  18C00401   [8]  08 86 30 52 30 7A 30 00
 (1659795983.255638)  can1  080F1201   [4]  EA 10 00 00
 (1659795983.279473)  can1  07773621   [8]  00 00 00 00 00 00 00 00
 (1659795983.279738)  can1  07773622   [8]  00 00 00 00 00 00 00 00
 (1659795983.280032)  can1  18000209   [8]  AB AA 02 00 00 00 00 00
 (1659795983.285696)  can1  18800401   [8]  09 A7 87 C7 87 C7 87 00
 (1659795983.285936)  can1  18840401   [8]  09 A7 87 C7 87 C7 87 00
 (1659795983.286210)  can1  18C00401   [8]  09 62 30 95 30 72 30 00
 (1659795983.331917)  can1  18800401   [8]  0A C7 87 CE 87 43 88 00
 (1659795983.332164)  can1  18840401   [8]  0A C7 87 CE 87 43 88 00
 (1659795983.332441)  can1  18C00401   [8]  0A B2 30 6A 30 B8 30 00
 (1659795983.355987)  can1  08041001   [8]  9E 03 F0 3D FB DE 1B 00
 (1659795983.371783)  can1  18800401   [8]  0B 37 88 D1 87 CF 87 00
 (1659795983.371970)  can1  18840401   [8]  0B 37 88 D1 87 CF 87 00
 (1659795983.372245)  can1  18C00401   [8]  0B 74 30 A9 30 7B 30 00
 (1659795983.379484)  can1  07773621   [8]  00 00 00 00 00 00 00 00
 (1659795983.379755)  can1  07773622   [8]  00 00 00 00 00 00 00 00
 (1659795983.380042)  can1  18000209   [8]  AB AA 02 00 00 00 00 00
 (1659795983.386681)  can1  08101201   [8]  00 00 75 88 80 87 03 00
 (1659795983.411717)  can1  18800401   [8]  0C CB 87 D2 87 D3 87 00
 (1659795983.411972)  can1  18840401   [8]  0C CB 87 D2 87 D3 87 00
 (1659795983.412275)  can1  18C00401   [8]  0C 97 30 65 30 90 30 00
 (1659795983.452988)  can1  18800401   [8]  0D 44 88 2B 88 D8 87 00
 (1659795983.453231)  can1  18840401   [8]  0D 44 88 2B 88 D8 87 00
 (1659795983.453509)  can1  18C00401   [8]  0D 5E 30 7C 30 52 30 00
 (1659795983.465980)  can1  08041001   [8]  9C 03 F0 3D FB DE 1B 00
 (1659795983.479492)  can1  07773621   [8]  00 00 00 00 00 00 00 00
 (1659795983.479764)  can1  07773622   [8]  00 00 00 00 00 00 00 00
 (1659795983.480072)  can1  18000209   [8]  AB AA 02 00 00 00 00 00
 (1659795983.492689)  can1  18800401   [8]  0E EA 87 EE 87 ED 87 00
 (1659795983.492938)  can1  18840401   [8]  0E EB 87 EF 87 EE 87 00
 (1659795983.493213)  can1  18C00401   [8]  0E 8E 30 61 30 8F 30 00
 (1659795983.532688)  can1  18800401   [8]  0F F1 87 61 88 56 88 00
 (1659795983.532934)  can1  18840401   [8]  0F F2 87 62 88 57 88 00
 (1659795983.533211)  can1  18C00401   [8]  0F 6C 30 A9 30 6F 30 00
 (1659795983.575986)  can1  08041001   [8]  9C 03 F0 3D FB DE 1B 00
 (1659795983.576241)  can1  18800401   [8]  10 75 88 02 88 EB 87 00
 (1659795983.576566)  can1  18840401   [8]  10 76 88 03 88 EC 87 00
 (1659795983.576791)  can1  18C00401   [8]  10 A0 30 65 30 8B 30 00
 (1659795983.579492)  can1  07773621   [8]  00 00 00 00 00 00 00 00
 (1659795983.579770)  can1  07773622   [8]  00 00 00 00 00 00 00 00
 (1659795983.580058)  can1  18000209   [8]  AB AA 02 00 00 00 00 00
 (1659795983.615691)  can1  18800401   [8]  11 F8 87 03 88 61 88 00
 (1659795983.615943)  can1  18840401   [8]  11 F9 87 04 88 62 88 00
 (1659795983.616224)  can1  18C00401   [8]  11 55 30 87 30 7F 30 00
 (1659795983.661916)  can1  18800401   [8]  12 44 88 A1 87 CB 87 00
 (1659795983.662163)  can1  18840401   [8]  12 45 88 A2 87 CC 87 00
 (1659795983.662541)  can1  18C00401   [8]  12 48 30 4E 30 8B 30 00
 (1659795983.663919)  can1  18101203   [4]  69 2E 7D 01
 (1659795983.679515)  can1  07773621   [8]  00 00 00 00 00 00 00 00
 (1659795983.679776)  can1  07773622   [8]  00 00 00 00 00 00 00 00
 (1659795983.680076)  can1  18000209   [8]  AB AA 02 00 00 00 00 00
 (1659795983.685987)  can1  08041001   [8]  98 03 F0 3D FB DE 1B 00
 (1659795983.701714)  can1  18800401   [8]  13 C2 87 C4 87 C1 87 00
 (1659795983.701973)  can1  18840401   [8]  13 C4 87 C6 87 C3 87 00
 (1659795983.702254)  can1  18C00401   [8]  13 60 30 9D 30 59 30 00
 (1659795983.741719)  can1  18800401   [8]  14 43 88 34 88 CF 87 00
 (1659795983.741977)  can1  18840401   [8]  14 45 88 36 88 D1 87 00
 (1659795983.742272)  can1  18C00401   [8]  14 84 30 56 30 8D 30 00
 (1659795983.779587)  can1  07773621   [8]  00 00 00 00 00 00 00 00
 (1659795983.779788)  can1  07773622   [8]  00 00 00 00 00 00 00 00
 (1659795983.780072)  can1  18000209   [8]  AB AA 02 00 00 00 00 00
 (1659795983.782963)  can1  18800401   [8]  15 CA 87 C8 87 CA 87 00
 (1659795983.783212)  can1  18840401   [8]  15 CC 87 CA 87 CC 87 00
 (1659795983.783495)  can1  18C00401   [8]  15 4D 30 79 30 59 30 00
 (1659795983.796006)  can1  08041001   [8]  98 03 F0 3D FB DE 1B 00
 (1659795983.807461)  can1  08100302   [5]  00 0B 0A 00 01
 (1659795983.822676)  can1  18800401   [8]  16 CB 87 44 88 2F 88 00
 (1659795983.822941)  can1  18840401   [8]  16 CB 87 44 88 2F 88 00
 (1659795983.823213)  can1  18C00401   [8]  16 76 30 51 30 66 30 00
 (1659795983.862685)  can1  18800401   [8]  00 DA 87 9A 87 AB 87 00
 (1659795983.862928)  can1  18840401   [8]  00 DA 87 9A 87 AB 87 00
 (1659795983.863235)  can1  18C00401   [8]  00 8A 30 53 30 97 30 00
 (1659795983.879519)  can1  07773621   [8]  00 00 00 00 00 00 00 00
 (1659795983.879794)  can1  07773622   [8]  00 00 00 00 00 00 00 00
 (1659795983.880083)  can1  18000209   [8]  AB AA 02 00 00 00 00 00
 (1659795983.888492)  can1  08101201   [8]  00 00 77 88 81 87 04 00
 (1659795983.905993)  can1  08041001   [8]  98 03 F0 3D FB DE 1B 00
 (1659795983.906279)  can1  18800401   [8]  01 82 87 83 87 36 88 00
 (1659795983.906566)  can1  18840401   [8]  01 83 87 84 87 37 88 00
 (1659795983.906799)  can1  18C00401   [8]  01 60 30 9A 30 5D 30 00
 (1659795983.945687)  can1  18800401   [8]  02 16 88 B5 87 DB 87 00
 (1659795983.945940)  can1  18840401   [8]  02 17 88 B6 87 DC 87 00
 (1659795983.946258)  can1  18C00401   [8]  02 7F 30 55 30 79 30 00
 (1659795983.979528)  can1  07773621   [8]  00 00 00 00 00 00 00 00
 (1659795983.979801)  can1  07773622   [8]  00 00 00 00 00 00 00 00
 (1659795983.980087)  can1  18000209   [8]  AB AA 02 00 00 00 00 00
 (1659795983.991917)  can1  18800401   [8]  03 DE 87 DF 87 E7 87 00
 (1659795983.992179)  can1  18840401   [8]  03 DF 87 E0 87 E8 87 00
 (1659795983.992486)  can1  18C00401   [8]  03 53 30 7D 30 4D 30 00
 (1659795984.015987)  can1  08041001   [8]  98 03 F0 3D FB DE 1B 00
 (1659795984.031721)  can1  18800401   [8]  04 49 88 FC 87 85 87 00
 (1659795984.031968)  can1  18840401   [8]  04 49 88 FC 87 85 87 00
 (1659795984.032242)  can1  18C00401   [8]  04 62 30 4B 30 59 30 00
 (1659795984.063875)  can1  0404FF03   [1]  00
 (1659795984.071726)  can1  18800401   [8]  05 CF 87 DA 87 DA 87 00
 (1659795984.071982)  can1  18840401   [8]  05 CF 87 DA 87 DA 87 00
 (1659795984.072257)  can1  18C00401   [8]  05 86 30 61 30 93 30 00
 (1659795984.079559)  can1  07773621   [8]  00 00 00 00 00 00 00 00
 (1659795984.079823)  can1  07773622   [8]  00 00 00 00 00 00 00 00
 (1659795984.080110)  can1  18000209   [8]  AB AA 02 00 00 00 00 00
 (1659795984.080589)  can1  0404FF07   [1]  00
 (1659795984.107376)  can1  0404FF02   [1]  00
 (1659795984.112970)  can1  18800401   [8]  06 D3 87 4B 88 39 88 00
 (1659795984.113226)  can1  18840401   [8]  06 D3 87 4B 88 39 88 00
 (1659795984.113502)  can1  18C00401   [8]  06 57 30 9D 30 64 30 00
 (1659795984.125981)  can1  08041001   [8]  96 03 F0 3D FB DE 1B 00
 (1659795984.146775)  can1  0404FF01   [1]  00
 (1659795984.152687)  can1  18800401   [8]  07 D9 87 DB 87 CE 87 00
 (1659795984.152939)  can1  18840401   [8]  07 DA 87 DC 87 CF 87 00
 (1659795984.153213)  can1  18C00401   [8]  07 95 30 58 30 97 30 00
 (1659795984.163934)  can1  18101203   [4]  5F 2E 8B 01
 (1659795984.179545)  can1  07773621   [8]  00 00 00 00 00 00 00 00
 (1659795984.179820)  can1  07773622   [8]  00 00 00 00 00 00 00 00
 (1659795984.180128)  can1  18000209   [8]  AB AA 02 00 00 00 00 00
 (1659795984.192691)  can1  18800401   [8]  08 D3 87 9E 87 4C 88 00
 (1659795984.192934)  can1  18840401   [8]  08 D4 87 9F 87 4D 88 00
 (1659795984.193206)  can1  18C00401   [8]  08 57 30 86 30 52 30 00
 (1659795984.235983)  can1  08041001   [8]  96 03 F0 3D FB DE 1B 00
 (1659795984.236238)  can1  18800401   [8]  09 22 88 A6 87 C7 87 00
 (1659795984.236515)  can1  18840401   [8]  09 22 88 A6 87 C7 87 00
 (1659795984.236786)  can1  18C00401   [8]  09 7A 30 62 30 95 30 00
 (1659795984.255635)  can1  080F1201   [4]  B8 10 00 00
 (1659795984.275696)  can1  18800401   [8]  0A C6 87 C7 87 CE 87 00
 (1659795984.275950)  can1  18840401   [8]  0A C6 87 C7 87 CE 87 00
 (1659795984.276237)  can1  18C00401   [8]  0A 72 30 B1 30 6A 30 00
 (1659795984.279551)  can1  07773621   [8]  00 00 00 00 00 00 00 00
 (1659795984.279827)  can1  07773622   [8]  00 00 00 00 00 00 00 00
 (1659795984.280112)  can1  18000209   [8]  AB AA 02 00 00 00 00 00
 (1659795984.321989)  can1  18800401   [8]  0B 44 88 36 88 D1 87 00
 (1659795984.322222)  can1  18840401   [8]  0B 44 88 36 88 D1 87 00
 (1659795984.322565)  can1  18C00401   [8]  0B B8 30 74 30 A9 30 00
 (1659795984.345993)  can1  08041001   [8]  96 03 F0 3D FB DE 1B 00
 (1659795984.361731)  can1  18800401   [8]  0C CF 87 CB 87 D1 87 00
 (1659795984.361984)  can1  18840401   [8]  0C CF 87 CB 87 D1 87 00
 (1659795984.362257)  can1  18C00401   [8]  0C 7B 30 97 30 65 30 00
 (1659795984.379580)  can1  07773621   [8]  00 00 00 00 00 00 00 00
 (1659795984.379834)  can1  07773622   [8]  00 00 00 00 00 00 00 00
 (1659795984.380117)  can1  18000209   [8]  AB AA 02 00 00 00 00 00
 (1659795984.388701)  can1  08101201   [8]  00 00 75 88 81 87 02 00
 (1659795984.401756)  can1  18800401   [8]  0D D3 87 44 88 2B 88 00
 (1659795984.401979)  can1  18840401   [8]  0D D3 87 44 88 2B 88 00
 (1659795984.402246)  can1  18C00401   [8]  0D 90 30 5E 30 7C 30 00
 (1659795984.442969)  can1  18800401   [8]  0E D7 87 E9 87 ED 87 00
 (1659795984.443227)  can1  18840401   [8]  0E D7 87 E9 87 ED 87 00
 (1659795984.443500)  can1  18C00401   [8]  0E 52 30 8E 30 61 30 00
 (1659795984.455994)  can1  08041001   [8]  96 03 F0 3D FB DE 1B 00
 (1659795984.479575)  can1  07773621   [8]  00 00 00 00 00 00 00 00
 (1659795984.479842)  can1  07773622   [8]  00 00 00 00 00 00 00 00
 (1659795984.480129)  can1  18000209   [8]  AB AA 02 00 00 00 00 00
 (1659795984.482691)  can1  18800401   [8]  0F ED 87 F1 87 61 88 00
 (1659795984.482944)  can1  18840401   [8]  0F ED 87 F1 87 61 88 00
 (1659795984.483227)  can1  18C00401   [8]  0F 90 30 6C 30 A9 30 00
 (1659795984.507462)  can1  08100302   [5]  00 0B 0A 00 01
 (1659795984.522690)  can1  18800401   [8]  10 55 88 75 88 01 88 00
 (1659795984.522948)  can1  18840401   [8]  10 55 88 75 88 01 88 00
 (1659795984.523256)  can1  18C00401   [8]  10 70 30 A0 30 65 30 00
 (1659795984.566046)  can1  08041001   [8]  94 03 F0 3D FB DE 1B 00
 (1659795984.566293)  can1  18800401   [8]  11 EC 87 F8 87 03 88 00
 (1659795984.566564)  can1  18840401   [8]  11 ED 87 F9 87 04 88 00
 (1659795984.566844)  can1  18C00401   [8]  11 8B 30 55 30 87 30 00
 (1659795984.579588)  can1  07773621   [8]  00 00 00 00 00 00 00 00
 (1659795984.579852)  can1  07773622   [8]  00 00 00 00 00 00 00 00
 (1659795984.580135)  can1  18000209   [8]  AB AA 02 00 00 00 00 00
 (1659795984.605697)  can1  18800401   [8]  12 61 88 43 88 A1 87 00
 (1659795984.605936)  can1  18840401   [8]  12 62 88 44 88 A2 87 00
 (1659795984.606252)  can1  18C00401   [8]  12 7F 30 48 30 4D 30 00
 (1659795984.651914)  can1  18800401   [8]  13 CB 87 BE 87 C4 87 00
 (1659795984.652172)  can1  18840401   [8]  13 CC 87 BF 87 C5 87 00
 (1659795984.652447)  can1  18C00401   [8]  13 8C 30 60 30 9D 30 00
 (1659795984.663934)  can1  18101203   [4]  5F 2E 86 01
 (1659795984.675985)  can1  08041001   [8]  92 03 F0 3D FB DE 1B 00
 (1659795984.679584)  can1  07773621   [8]  00 00 00 00 00 00 00 00
 (1659795984.679857)  can1  07773622   [8]  00 00 00 00 00 00 00 00
 (1659795984.680146)  can1  18000209   [8]  AB AA 02 00 00 00 00 00
 (1659795984.691724)  can1  18800401   [8]  14 BE 87 44 88 32 88 00
 (1659795984.691978)  can1  18840401   [8]  14 BE 87 44 88 32 88 00
 (1659795984.692256)  can1  18C00401   [8]  14 59 30 84 30 56 30 00
 (1659795984.731719)  can1  18800401   [8]  15 D3 87 CD 87 C9 87 00
 (1659795984.731980)  can1  18840401   [8]  15 D3 87 CD 87 C9 87 00
 (1659795984.732265)  can1  18C00401   [8]  15 8D 30 4C 30 79 30 00
 (1659795984.772981)  can1  18800401   [8]  16 C9 87 D3 87 47 88 00
 (1659795984.773227)  can1  18840401   [8]  16 C9 87 D3 87 47 88 00
 (1659795984.773501)  can1  18C00401   [8]  16 59 30 76 30 51 30 00
 (1659795984.779622)  can1  07773621   [8]  00 00 00 00 00 00 00 00
 (1659795984.779864)  can1  07773622   [8]  00 00 00 00 00 00 00 00
 (1659795984.780152)  can1  18000209   [8]  AB AA 02 00 00 00 00 00
 (1659795984.785986)  can1  08041001   [8]  92 03 F0 3D FB DE 1B 00
 (1659795984.812710)  can1  18800401   [8]  17 30 88 00 00 00 00 00
 (1659795984.812962)  can1  18840401   [8]  17 32 88 00 00 00 00 00
 (1659795984.813241)  can1  18C00401   [8]  17 66 30 10 27 10 27 00
 (1659795984.852691)  can1  18800401   [8]  00 AC 87 81 87 83 87 00
 (1659795984.852943)  can1  18840401   [8]  00 AE 87 83 87 85 87 00
 (1659795984.853218)  can1  18C00401   [8]  00 97 30 60 30 9A 30 00
 (1659795984.879606)  can1  07773621   [8]  00 00 00 00 00 00 00 00
 (1659795984.879878)  can1  07773622   [8]  00 00 00 00 00 00 00 00
 (1659795984.880204)  can1  18000209   [8]  AB AA 02 00 00 00 00 00
 (1659795984.890672)  can1  08101201   [8]  00 00 75 88 83 87 01 00
 (1659795984.896039)  can1  08041001   [8]  92 03 F0 3D FB DE 1B 00
 (1659795984.896291)  can1  18800401   [8]  01 36 88 17 88 B4 87 00
 (1659795984.896566)  can1  18840401   [8]  01 37 88 18 88 B5 87 00
 (1659795984.896848)  can1  18C00401   [8]  01 5D 30 7F 30 55 30 00
 (1659795984.935697)  can1  18800401   [8]  02 DA 87 DE 87 DE 87 00
 (1659795984.935958)  can1  18840401   [8]  02 DB 87 DF 87 DF 87 00
 (1659795984.936234)  can1  18C00401   [8]  02 78 30 53 30 7D 30 00
 (1659795984.979636)  can1  07773621   [8]  00 00 00 00 00 00 00 00
 (1659795984.979875)  can1  07773622   [8]  00 00 00 00 00 00 00 00
 (1659795984.980170)  can1  18000209   [8]  AB AA 02 00 00 00 00 00
 (1659795984.981910)  can1  18800401   [8]  03 E6 87 47 88 FC 87 00
 (1659795984.982183)  can1  18840401   [8]  03 E7 87 48 88 FD 87 00
 (1659795984.982642)  can1  18C00401   [8]  03 4C 30 62 30 4B 30 00
 (1659795985.005993)  can1  08041001   [8]  92 03 F0 3D FB DE 1B 00
 (1659795985.021726)  can1  18800401   [8]  04 87 87 CE 87 DB 87 00
 (1659795985.021986)  can1  18840401   [8]  04 87 87 CE 87 DB 87 00
 (1659795985.022327)  can1  18C00401   [8]  04 59 30 86 30 61 30 00
 (1659795985.061734)  can1  18800401   [8]  05 DA 87 D3 87 4A 88 00
 (1659795985.061982)  can1  18840401   [8]  05 DA 87 D3 87 4A 88 00
 (1659795985.062256)  can1  18C00401   [8]  05 93 30 57 30 9D 30 00
 (1659795985.063860)  can1  0404FF03   [1]  00
 (1659795985.079691)  can1  07773621   [8]  00 00 00 00 00 00 00 00
 (1659795985.079910)  can1  07773622   [8]  00 00 00 00 00 00 00 00
 (1659795985.080192)  can1  18000209   [8]  AB AA 02 00 00 00 00 00
 (1659795985.080645)  can1  0404FF07   [1]  00
 (1659795985.102961)  can1  18800401   [8]  06 3A 88 D9 87 DC 87 00
 (1659795985.103223)  can1  18840401   [8]  06 3A 88 D9 87 DC 87 00
 (1659795985.103510)  can1  18C00401   [8]  06 64 30 95 30 58 30 00
 (1659795985.107369)  can1  0404FF02   [1]  00
 (1659795985.115987)  can1  08041001   [8]  90 03 F0 3D FB DE 1B 00
 (1659795985.142691)  can1  18800401   [8]  07 CD 87 D4 87 9E 87 00
 (1659795985.142943)  can1  18840401   [8]  07 CE 87 D5 87 9F 87 00
 (1659795985.143239)  can1  18C00401   [8]  07 97 30 57 30 86 30 00
 (1659795985.146561)  can1  0404FF01   [1]  00
 (1659795985.163940)  can1  18101203   [4]  5F 2E 86 01
 (1659795985.179645)  can1  07773621   [8]  00 00 00 00 00 00 00 00
 (1659795985.179892)  can1  07773622   [8]  00 00 00 00 00 00 00 00
 (1659795985.180185)  can1  18000209   [8]  AB AA 02 00 00 00 00 00
 (1659795985.182684)  can1  18800401   [8]  08 4C 88 22 88 A9 87 00
 (1659795985.182940)  can1  18840401   [8]  08 4D 88 23 88 AA 87 00
 (1659795985.183219)  can1  18C00401   [8]  08 52 30 7A 30 62 30 00
 (1659795985.207466)  can1  08100302   [5]  00 0C 0A 00 01
 (1659795985.226006)  can1  08041001   [8]  90 03 F0 3D FB DE 1B 00
 (1659795985.226251)  can1  18800401   [8]  09 C7 87 C6 87 C8 87 00
 (1659795985.226564)  can1  18840401   [8]  09 C7 87 C6 87 C8 87 00
 (1659795985.226798)  can1  18C00401   [8]  09 95 30 72 30 B1 30 00
 (1659795985.255649)  can1  080F1201   [4]  EA 10 00 00
 (1659795985.265695)  can1  18800401   [8]  0A CE 87 44 88 37 88 00
 (1659795985.265948)  can1  18840401   [8]  0A CE 87 44 88 37 88 00
 (1659795985.266227)  can1  18C00401   [8]  0A 6A 30 B8 30 74 30 00
 (1659795985.279629)  can1  07773621   [8]  00 00 00 00 00 00 00 00
 (1659795985.279907)  can1  07773622   [8]  00 00 00 00 00 00 00 00
 (1659795985.280203)  can1  18000209   [8]  AB AA 02 00 00 00 00 00
 (1659795985.311937)  can1  18800401   [8]  0B D0 87 CF 87 CC 87 00
 (1659795985.312187)  can1  18840401   [8]  0B D0 87 CF 87 CC 87 00
 (1659795985.312463)  can1  18C00401   [8]  0B A9 30 7B 30 97 30 00
 (1659795985.335995)  can1  08041001   [8]  90 03 F0 3D FB DE 1B 00
 (1659795985.351724)  can1  18800401   [8]  0C D1 87 D3 87 44 88 00
 (1659795985.351983)  can1  18840401   [8]  0C D1 87 D3 87 44 88 00
 (1659795985.352264)  can1  18C00401   [8]  0C 64 30 91 30 5E 30 00
 (1659795985.379692)  can1  07773621   [8]  00 00 00 00 00 00 00 00
 (1659795985.379912)  can1  07773622   [8]  00 00 00 00 00 00 00 00
 (1659795985.380199)  can1  18000209   [8]  AB AA 02 00 00 00 00 00
 (1659795985.390690)  can1  08101201   [8]  00 00 77 88 81 87 04 00
 (1659795985.391716)  can1  18800401   [8]  0D 2B 88 D5 87 E9 87 00
 (1659795985.391976)  can1  18840401   [8]  0D 2B 88 D5 87 E9 87 00
 (1659795985.392254)  can1  18C00401   [8]  0D 7C 30 52 30 8E 30 00
 (1659795985.432977)  can1  18800401   [8]  0E EE 87 ED 87 F2 87 00
 (1659795985.433233)  can1  18840401   [8]  0E EE 87 ED 87 F2 87 00
 (1659795985.433507)  can1  18C00401   [8]  0E 61 30 90 30 6C 30 00
 (1659795985.445997)  can1  08041001   [8]  90 03 F0 3D FB DE 1B 00
 (1659795985.472677)  can1  18800401   [8]  0F 61 88 54 88 75 88 00
 (1659795985.472939)  can1  18840401   [8]  0F 61 88 54 88 75 88 00
 (1659795985.473217)  can1  18C00401   [8]  0F A9 30 70 30 A0 30 00
 (1659795985.479642)  can1  07773621   [8]  00 00 00 00 00 00 00 00
 (1659795985.479925)  can1  07773622   [8]  00 00 00 00 00 00 00 00
 (1659795985.480207)  can1  18000209   [8]  AB AA 02 00 00 00 00 00
 (1659795985.512700)  can1  18800401   [8]  10 02 88 EC 87 F8 87 00
 (1659795985.512964)  can1  18840401   [8]  10 02 88 EC 87 F8 87 00
 (1659795985.513232)  can1  18C00401   [8]  10 65 30 8B 30 55 30 00
 (1659795985.555992)  can1  08041001   [8]  8C 03 F0 3D FB DE 1B 00
 (1659795985.556253)  can1  18800401   [8]  11 03 88 61 88 45 88 00
 (1659795985.556551)  can1  18840401   [8]  11 03 88 61 88 45 88 00
 (1659795985.556804)  can1  18C00401   [8]  11 87 30 7F 30 48 30 00
 (1659795985.579675)  can1  07773621   [8]  00 00 00 00 00 00 00 00
 (1659795985.579929)  can1  07773622   [8]  00 00 00 00 00 00 00 00
 (1659795985.580217)  can1  18000209   [8]  AB AA 02 00 00 00 00 00
 (1659795985.595690)  can1  18800401   [8]  12 9F 87 CB 87 BE 87 00
 (1659795985.595961)  can1  18840401   [8]  12 9F 87 CB 87 BE 87 00
 (1659795985.596244)  can1  18C00401   [8]  12 4D 30 8C 30 60 30 00
 (1659795985.641937)  can1  18800401   [8]  13 C4 87 BC 87 43 88 00
 (1659795985.642170)  can1  18840401   [8]  13 C4 87 BC 87 43 88 00
 (1659795985.642602)  can1  18C00401   [8]  13 9D 30 59 30 84 30 00
 (1659795985.663949)  can1  18101203   [4]  64 2E 8B 01
 (1659795985.665990)  can1  08041001   [8]  8C 03 F0 3D FB DE 1B 00
 (1659795985.679699)  can1  07773621   [8]  00 00 00 00 00 00 00 00
 (1659795985.679941)  can1  07773622   [8]  00 00 00 00 00 00 00 00
 (1659795985.680229)  can1  18000209   [8]  AB AA 02 00 00 00 00 00
 (1659795985.681716)  can1  18800401   [8]  14 34 88 D1 87 CA 87 00
 (1659795985.681985)  can1  18840401   [8]  14 35 88 D2 87 CB 87 00
 (1659795985.682262)  can1  18C00401   [8]  14 56 30 8D 30 4C 30 00
 (1659795985.721740)  can1  18800401   [8]  15 C7 87 CA 87 D1 87 00
 (1659795985.722004)  can1  18840401   [8]  15 C8 87 CB 87 D2 87 00
 (1659795985.722258)  can1  18C00401   [8]  15 79 30 59 30 76 30 00
 (1659795985.762976)  can1  18800401   [8]  16 45 88 30 88 00 00 00
 (1659795985.763250)  can1  18840401   [8]  16 46 88 31 88 00 00 00
 (1659795985.763522)  can1  18C00401   [8]  16 51 30 66 30 10 27 00
 (1659795985.776002)  can1  08041001   [8]  8A 03 F0 3D FB DE 1B 00
 (1659795985.779674)  can1  07773621   [8]  00 00 00 00 00 00 00 00
 (1659795985.779947)  can1  07773622   [8]  00 00 00 00 00 00 00 00
 (1659795985.780237)  can1  18000209   [8]  AB AA 02 00 00 00 00 00
 (1659795985.802687)  can1  18800401   [8]  00 9A 87 AB 87 81 87 00
 (1659795985.802944)  can1  18840401   [8]  00 9B 87 AC 87 82 87 00
 (1659795985.803224)  can1  18C00401   [8]  00 53 30 97 30 60 30 00
 (1659795985.842686)  can1  18800401   [8]  01 84 87 36 88 16 88 00
 (1659795985.842953)  can1  18840401   [8]  01 85 87 37 88 17 88 00
 (1659795985.843245)  can1  18C00401   [8]  01 9A 30 5D 30 7F 30 00
 (1659795985.879689)  can1  07773621   [8]  00 00 00 00 00 00 00 00
 (1659795985.879995)  can1  07773622   [8]  00 00 00 00 00 00 00 00
 (1659795985.880235)  can1  18000209   [8]  AB AA 02 00 00 00 00 00
 (1659795985.885990)  can1  08041001   [8]  88 03 F0 3D FB DE 1B 00
 (1659795985.886258)  can1  18800401   [8]  02 B4 87 DB 87 DE 87 00
 (1659795985.886525)  can1  18840401   [8]  02 B4 87 DB 87 DE 87 00
 (1659795985.886854)  can1  18C00401   [8]  02 55 30 78 30 53 30 00
 (1659795985.891716)  can1  08101201   [8]  00 00 75 88 81 87 03 00
 (1659795985.907467)  can1  08100302   [5]  00 0B 0A 00 01
 (1659795985.925714)  can1  18800401   [8]  03 DF 87 E7 87 49 88 00
 (1659795985.925963)  can1  18840401   [8]  03 DF 87 E7 87 49 88 00
 (1659795985.926247)  can1  18C00401   [8]  03 7D 30 4C 30 62 30 00
 (1659795985.971933)  can1  18800401   [8]  04 FB 87 87 87 CF 87 00
 (1659795985.972188)  can1  18840401   [8]  04 FB 87 87 87 CF 87 00
 (1659795985.972465)  can1  18C00401   [8]  04 4B 30 59 30 86 30 00
 (1659795985.979692)  can1  07773621   [8]  00 00 00 00 00 00 00 00
 (1659795985.979963)  can1  07773622   [8]  00 00 00 00 00 00 00 00
 (1659795985.980253)  can1  18000209   [8]  AB AA 02 00 00 00 00 00
 (1659795985.995997)  can1  08041001   [8]  88 03 F0 3D FB DE 1B 00
 (1659795986.011737)  can1  18800401   [8]  05 DB 87 D9 87 D3 87 00
 (1659795986.011986)  can1  18840401   [8]  05 DB 87 D9 87 D3 87 00
 (1659795986.012258)  can1  18C00401   [8]  05 61 30 93 30 57 30 00
 (1659795986.051734)  can1  18800401   [8]  06 4A 88 3A 88 DB 87 00
 (1659795986.051982)  can1  18840401   [8]  06 4A 88 3A 88 DB 87 00
 (1659795986.052255)  can1  18C00401   [8]  06 9D 30 64 30 95 30 00
 (1659795986.063904)  can1  0404FF03   [1]  00
 (1659795986.079709)  can1  07773621   [8]  00 00 00 00 00 00 00 00
 (1659795986.079987)  can1  07773622   [8]  00 00 00 00 00 00 00 00
 (1659795986.080274)  can1  18000209   [8]  AB AA 02 00 00 00 00 00
 (1659795986.080717)  can1  0404FF07   [1]  00
 (1659795986.092989)  can1  18800401   [8]  07 DB 87 CE 87 D4 87 00
 (1659795986.093239)  can1  18840401   [8]  07 DB 87 CE 87 D4 87 00
 (1659795986.093517)  can1  18C00401   [8]  07 58 30 97 30 57 30 00
 (1659795986.105987)  can1  08041001   [8]  88 03 F0 3D FB DE 1B 00
 (1659795986.107370)  can1  0404FF02   [1]  00
 (1659795986.132743)  can1  18800401   [8]  08 9E 87 4C 88 23 88 00
 (1659795986.132949)  can1  18840401   [8]  08 9F 87 4D 88 24 88 00
 (1659795986.133228)  can1  18C00401   [8]  08 86 30 52 30 7A 30 00
 (1659795986.146569)  can1  0404FF01   [1]  00
 (1659795986.163954)  can1  18101203   [4]  64 2E 8F 01
 (1659795986.172691)  can1  18800401   [8]  09 A9 87 C6 87 C6 87 00
 (1659795986.172947)  can1  18840401   [8]  09 AA 87 C7 87 C7 87 00
 (1659795986.173231)  can1  18C00401   [8]  09 62 30 94 30 72 30 00
 (1659795986.179701)  can1  07773621   [8]  00 00 00 00 00 00 00 00
 (1659795986.179976)  can1  07773622   [8]  00 00 00 00 00 00 00 00
 (1659795986.180304)  can1  18000209   [8]  AB AA 02 00 00 00 00 00
 (1659795986.216008)  can1  08041001   [8]  88 03 F0 3D FB DE 1B 00
 (1659795986.216258)  can1  18800401   [8]  0A C7 87 CE 87 43 88 00
 (1659795986.216535)  can1  18840401   [8]  0A C8 87 CF 87 44 88 00
 (1659795986.216805)  can1  18C00401   [8]  0A B2 30 6A 30 B8 30 00
 (1659795986.255642)  can1  080F1201   [4]  A8 11 00 00
 (1659795986.255906)  can1  18800401   [8]  0B 36 88 D1 87 CF 87 00
 (1659795986.256196)  can1  18840401   [8]  0B 37 88 D2 87 D0 87 00
 (1659795986.256668)  can1  18C00401   [8]  0B 74 30 A9 30 7B 30 00
 (1659795986.279719)  can1  07773621   [8]  00 00 00 00 00 00 00 00
 (1659795986.279987)  can1  07773622   [8]  00 00 00 00 00 00 00 00
 (1659795986.280309)  can1  18000209   [8]  AB AA 02 00 00 00 00 00
 (1659795986.301951)  can1  18800401   [8]  0C CB 87 D1 87 D3 87 00
 (1659795986.302206)  can1  18840401   [8]  0C CC 87 D2 87 D4 87 00
 (1659795986.302534)  can1  18C00401   [8]  0C 97 30 64 30 91 30 00
 (1659795986.326008)  can1  08041001   [8]  84 03 F0 3D FB DE 1B 00
 (1659795986.341739)  can1  18800401   [8]  0D 44 88 2A 88 D8 87 00
 (1659795986.341978)  can1  18840401   [8]  0D 44 88 2A 88 D8 87 00
 (1659795986.342259)  can1  18C00401   [8]  0D 5E 30 7C 30 52 30 00
 (1659795986.379721)  can1  07773621   [8]  00 00 00 00 00 00 00 00
 (1659795986.379995)  can1  07773622   [8]  00 00 00 00 00 00 00 00
 (1659795986.380299)  can1  18000209   [8]  AB AA 02 00 00 00 00 00
 (1659795986.381764)  can1  18800401   [8]  0E EA 87 ED 87 ED 87 00
 (1659795986.381985)  can1  18840401   [8]  0E EA 87 ED 87 ED 87 00
 (1659795986.382265)  can1  18C00401   [8]  0E 8E 30 61 30 8F 30 00
 (1659795986.392690)  can1  08101201   [8]  00 00 75 88 80 87 05 00
 (1659795986.422974)  can1  18800401   [8]  0F F2 87 62 88 55 88 00
 (1659795986.423236)  can1  18840401   [8]  0F F2 87 62 88 55 88 00
 (1659795986.423534)  can1  18C00401   [8]  0F 6C 30 A9 30 70 30 00
 (1659795986.435995)  can1  08041001   [8]  84 03 F0 3D FB DE 1B 00
 (1659795986.462712)  can1  18800401   [8]  10 75 88 02 88 EC 87 00
 (1659795986.462953)  can1  18840401   [8]  10 76 88 03 88 ED 87 00
 (1659795986.463231)  can1  18C00401   [8]  10 A0 30 65 30 8B 30 00
 (1659795986.479726)  can1  07773621   [8]  00 00 00 00 00 00 00 00
 (1659795986.480011)  can1  07773622   [8]  00 00 00 00 00 00 00 00
 (1659795986.480289)  can1  18000209   [8]  AB AA 02 00 00 00 00 00
 (1659795986.502692)  can1  18800401   [8]  11 F8 87 04 88 61 88 00
 (1659795986.502956)  can1  18840401   [8]  11 F9 87 05 88 62 88 00
 (1659795986.503232)  can1  18C00401   [8]  11 55 30 87 30 7F 30 00
 (1659795986.545998)  can1  08041001   [8]  84 03 F0 3D FB DE 1B 00
 (1659795986.546260)  can1  18800401   [8]  12 44 88 A2 87 CB 87 00
 (1659795986.546539)  can1  18840401   [8]  12 44 88 A2 87 CB 87 00
 (1659795986.546806)  can1  18C00401   [8]  12 48 30 4D 30 8C 30 00
 (1659795986.579744)  can1  07773621   [8]  00 00 00 00 00 00 00 00
 (1659795986.580007)  can1  07773622   [8]  00 00 00 00 00 00 00 00
 (1659795986.580295)  can1  18000209   [8]  AB AA 02 00 00 00 00 00
 (1659795986.585695)  can1  18800401   [8]  13 C2 87 C5 87 C5 87 00
 (1659795986.585958)  can1  18840401   [8]  13 C2 87 C5 87 C5 87 00
 (1659795986.586259)  can1  18C00401   [8]  13 60 30 9D 30 59 30 00
 (1659795986.607468)  can1  08100302   [5]  00 0B 0A 00 01
 (1659795986.631942)  can1  18800401   [8]  14 44 88 35 88 CF 87 00
 (1659795986.632189)  can1  18840401   [8]  14 44 88 35 88 CF 87 00
 (1659795986.632463)  can1  18C00401   [8]  14 84 30 56 30 8D 30 00
 (1659795986.655999)  can1  08041001   [8]  84 03 F0 3D FB DE 1B 00
 (1659795986.663964)  can1  18101203   [4]  5A 2E 8B 01
 (1659795986.671734)  can1  18800401   [8]  15 CB 87 C9 87 CD 87 00
 (1659795986.672007)  can1  18840401   [8]  15 CC 87 CA 87 CE 87 00
 (1659795986.672271)  can1  18C00401   [8]  15 4C 30 79 30 5A 30 00
 (1659795986.679753)  can1  07773621   [8]  00 00 00 00 00 00 00 00
 (1659795986.680021)  can1  07773622   [8]  00 00 00 00 00 00 00 00
 (1659795986.680310)  can1  18000209   [8]  AB AA 02 00 00 00 00 00
 (1659795986.711737)  can1  18800401   [8]  16 CF 87 45 88 30 88 00
 (1659795986.711991)  can1  18840401   [8]  16 D0 87 46 88 31 88 00
 (1659795986.712278)  can1  18C00401   [8]  16 76 30 51 30 66 30 00
 (1659795986.752982)  can1  18800401   [8]  00 DD 87 9B 87 AC 87 00
 (1659795986.753249)  can1  18840401   [8]  00 DE 87 9C 87 AD 87 00
 (1659795986.753538)  can1  18C00401   [8]  00 8A 30 53 30 97 30 00
 (1659795986.766007)  can1  08041001   [8]  84 03 F0 3D FB DE 1B 00
 (1659795986.779751)  can1  07773621   [8]  00 00 00 00 00 00 00 00
 (1659795986.780029)  can1  07773622   [8]  00 00 00 00 00 00 00 00
 (1659795986.780316)  can1  18000209   [8]  AB AA 02 00 00 00 00 00
 (1659795986.792706)  can1  18800401   [8]  01 82 87 84 87 36 88 00
 (1659795986.792959)  can1  18840401   [8]  01 82 87 84 87 36 88 00
 (1659795986.793249)  can1  18C00401   [8]  01 60 30 9A 30 5D 30 00
 (1659795986.832688)  can1  18800401   [8]  02 18 88 B3 87 DA 87 00
 (1659795986.832947)  can1  18840401   [8]  02 18 88 B3 87 DA 87 00
 (1659795986.833234)  can1  18C00401   [8]  02 7F 30 55 30 78 30 00
 (1659795986.875999)  can1  08041001   [8]  84 03 F0 3D FB DE 1B 00
 (1659795986.876264)  can1  18800401   [8]  03 DF 87 E0 87 E6 87 00
 (1659795986.876558)  can1  18840401   [8]  03 DF 87 E0 87 E6 87 00
 (1659795986.876824)  can1  18C00401   [8]  03 53 30 7D 30 4D 30 00
 (1659795986.879755)  can1  07773621   [8]  00 00 00 00 00 00 00 00
 (1659795986.880091)  can1  07773622   [8]  00 00 00 00 00 00 00 00
 (1659795986.880314)  can1  18000209   [8]  AB AA 02 00 00 00 00 00
 (1659795986.893700)  can1  08101201   [8]  00 00 77 88 82 87 03 00
 (1659795986.915699)  can1  18800401   [8]  04 49 88 FC 87 84 87 00
 (1659795986.915951)  can1  18840401   [8]  04 49 88 FC 87 84 87 00
 (1659795986.916245)  can1  18C00401   [8]  04 62 30 4B 30 59 30 00
 (1659795986.961936)  can1  18800401   [8]  05 CF 87 DA 87 D9 87 00
 (1659795986.962198)  can1  18840401   [8]  05 CF 87 DA 87 D9 87 00
 (1659795986.962523)  can1  18C00401   [8]  05 86 30 61 30 93 30 00
 (1659795986.979769)  can1  07773621   [8]  00 00 00 00 00 00 00 00
 (1659795986.980045)  can1  07773622   [8]  00 00 00 00 00 00 00 00
 (1659795986.980333)  can1  18000209   [8]  AB AA 02 00 00 00 00 00
 (1659795986.985998)  can1  08041001   [8]  82 03 F0 3D FB DE 1B 00
 (1659795987.001755)  can1  18800401   [8]  06 D3 87 4B 88 39 88 00
 (1659795987.001997)  can1  18840401   [8]  06 D3 87 4B 88 39 88 00
 (1659795987.002273)  can1  18C00401   [8]  06 57 30 9D 30 64 30 00
 (1659795987.041748)  can1  18800401   [8]  07 DA 87 DB 87 CE 87 00
 (1659795987.042000)  can1  18840401   [8]  07 DA 87 DB 87 CE 87 00
 (1659795987.042273)  can1  18C00401   [8]  07 95 30 58 30 97 30 00
 (1659795987.063910)  can1  0404FF03   [1]  00
 (1659795987.079803)  can1  07773621   [8]  00 00 00 00 00 00 00 00
 (1659795987.080072)  can1  07773622   [8]  00 00 00 00 00 00 00 00
 (1659795987.080355)  can1  18000209   [8]  AB AA 02 00 00 00 00 00
 (1659795987.080775)  can1  0404FF07   [1]  00
 (1659795987.082990)  can1  18800401   [8]  08 D4 87 9E 87 4D 88 00
 (1659795987.083254)  can1  18840401   [8]  08 D4 87 9E 87 4D 88 00
 (1659795987.083527)  can1  18C00401   [8]  08 57 30 86 30 52 30 00
 (1659795987.096023)  can1  08041001   [8]  80 03 F0 3D FB DE 1B 00
 (1659795987.107502)  can1  0404FF02   [1]  00
 (1659795987.122693)  can1  18800401   [8]  09 23 88 A6 87 C7 87 00
 (1659795987.122951)  can1  18840401   [8]  09 23 88 A6 87 C7 87 00
 (1659795987.123229)  can1  18C00401   [8]  09 7A 30 62 30 94 30 00
 (1659795987.146656)  can1  0404FF01   [1]  00
 (1659795987.162702)  can1  18800401   [8]  0A C7 87 C7 87 CE 87 00
 (1659795987.162957)  can1  18840401   [8]  0A C7 87 C7 87 CE 87 00
 (1659795987.163301)  can1  18C00401   [8]  0A 72 30 B2 30 6A 30 00
 (1659795987.163953)  can1  18101203   [4]  69 2E 82 01
 (1659795987.179791)  can1  07773621   [8]  00 00 00 00 00 00 00 00
 (1659795987.180063)  can1  07773622   [8]  00 00 00 00 00 00 00 00
 (1659795987.180347)  can1  18000209   [8]  AB AA 02 00 00 00 00 00
 (1659795987.206046)  can1  08041001   [8]  80 03 F0 3D FB DE 1B 00
 (1659795987.206262)  can1  18800401   [8]  0B 44 88 37 88 D0 87 00
 (1659795987.206555)  can1  18840401   [8]  0B 45 88 38 88 D1 87 00
 (1659795987.206812)  can1  18C00401   [8]  0B B8 30 74 30 A9 30 00
 (1659795987.245723)  can1  18800401   [8]  0C D0 87 CC 87 D2 87 00
 (1659795987.245964)  can1  18840401   [8]  0C D1 87 CD 87 D3 87 00
 (1659795987.246239)  can1  18C00401   [8]  0C 7B 30 97 30 65 30 00
 (1659795987.255656)  can1  080F1201   [4]  08 11 00 00
 (1659795987.279800)  can1  07773621   [8]  00 00 00 00 00 00 00 00
 (1659795987.280067)  can1  07773622   [8]  00 00 00 00 00 00 00 00
 (1659795987.280355)  can1  18000209   [8]  AB AA 02 00 00 00 00 00
 (1659795987.291933)  can1  18800401   [8]  0D D2 87 44 88 2B 88 00
 (1659795987.292188)  can1  18840401   [8]  0D D3 87 45 88 2C 88 00
 (1659795987.292470)  can1  18C00401   [8]  0D 90 30 5E 30 7C 30 00
 (1659795987.307484)  can1  08100302   [5]  00 0B 0A 00 01
 (1659795987.316008)  can1  08041001   [8]  80 03 00 3E FB DE 1B 00
 (1659795987.331745)  can1  18800401   [8]  0E D7 87 EA 87 ED 87 00
 (1659795987.331999)  can1  18840401   [8]  0E D8 87 EB 87 EE 87 00
 (1659795987.332270)  can1  18C00401   [8]  0E 52 30 8E 30 61 30 00
 (1659795987.371747)  can1  18800401   [8]  0F ED 87 F0 87 61 88 00
 (1659795987.372000)  can1  18840401   [8]  0F EE 87 F1 87 62 88 00
 (1659795987.372318)  can1  18C00401   [8]  0F 8F 30 6C 30 A9 30 00
 (1659795987.379798)  can1  07773621   [8]  00 00 00 00 00 00 00 00
 (1659795987.380080)  can1  07773622   [8]  00 00 00 00 00 00 00 00
 (1659795987.380365)  can1  18000209   [8]  AB AA 02 00 00 00 00 00
 (1659795987.396531)  can1  08101201   [8]  00 00 76 88 82 87 04 00
 (1659795987.413000)  can1  18800401   [8]  10 54 88 76 88 02 88 00
 (1659795987.413248)  can1  18840401   [8]  10 55 88 77 88 03 88 00
 (1659795987.413533)  can1  18C00401   [8]  10 70 30 A0 30 65 30 00
 (1659795987.426084)  can1  08041001   [8]  80 03 00 3E FB DE 1B 00
 (1659795987.452695)  can1  18800401   [8]  11 EC 87 F8 87 04 88 00
 (1659795987.452962)  can1  18840401   [8]  11 ED 87 F9 87 05 88 00
 (1659795987.453255)  can1  18C00401   [8]  11 8B 30 55 30 87 30 00
 (1659795987.479807)  can1  07773621   [8]  00 00 00 00 00 00 00 00
 (1659795987.480083)  can1  07773622   [8]  00 00 00 00 00 00 00 00
 (1659795987.480380)  can1  18000209   [8]  AB AA 02 00 00 00 00 00
 (1659795987.492716)  can1  18800401   [8]  12 61 88 45 88 A0 87 00
 (1659795987.492950)  can1  18840401   [8]  12 62 88 46 88 A1 87 00
 (1659795987.493233)  can1  18C00401   [8]  12 7F 30 48 30 4D 30 00
 (1659795987.536032)  can1  08041001   [8]  7E 03 00 3E FB DE 1B 00
 (1659795987.536276)  can1  18800401   [8]  13 CB 87 C7 87 C4 87 00
 (1659795987.536552)  can1  18840401   [8]  13 CB 87 C7 87 C4 87 00
 (1659795987.536863)  can1  18C00401   [8]  13 8B 30 60 30 9D 30 00
 (1659795987.575707)  can1  18800401   [8]  14 B9 87 43 88 34 88 00
 (1659795987.575967)  can1  18840401   [8]  14 B9 87 43 88 34 88 00
 (1659795987.576278)  can1  18C00401   [8]  14 59 30 84 30 56 30 00
 (1659795987.579822)  can1  07773621   [8]  00 00 00 00 00 00 00 00
 (1659795987.580091)  can1  07773622   [8]  00 00 00 00 00 00 00 00
 (1659795987.580380)  can1  18000209   [8]  AB AA 02 00 00 00 00 00
 (1659795987.621971)  can1  18800401   [8]  15 D1 87 CA 87 C7 87 00
 (1659795987.622194)  can1  18840401   [8]  15 D1 87 CA 87 C7 87 00
 (1659795987.622530)  can1  18C00401   [8]  15 8D 30 4C 30 79 30 00
 (1659795987.646019)  can1  08041001   [8]  7E 03 00 3E FB DE 1B 00
 (1659795987.661735)  can1  18800401   [8]  16 CB 87 CF 87 44 88 00
 (1659795987.661996)  can1  18840401   [8]  16 CC 87 D0 87 45 88 00
 (1659795987.662275)  can1  18C00401   [8]  16 5A 30 76 30 51 30 00
 (1659795987.663962)  can1  18101203   [4]  69 2E 82 01
 (1659795987.679830)  can1  07773621   [8]  00 00 00 00 00 00 00 00
 (1659795987.680104)  can1  07773622   [8]  00 00 00 00 00 00 00 00
 (1659795987.680414)  can1  18000209   [8]  AB AA 02 00 00 00 00 00
 (1659795987.701763)  can1  18800401   [8]  17 30 88 00 00 00 00 00
 (1659795987.702018)  can1  18840401   [8]  17 31 88 00 00 00 00 00
 (1659795987.702297)  can1  18C00401   [8]  17 66 30 10 27 10 27 00
 (1659795987.742993)  can1  18800401   [8]  00 AC 87 81 87 83 87 00
 (1659795987.743252)  can1  18840401   [8]  00 AD 87 82 87 84 87 00
 (1659795987.743543)  can1  18C00401   [8]  00 97 30 60 30 9A 30 00
 (1659795987.756026)  can1  08041001   [8]  7E 03 00 3E FB DE 1B 00
 (1659795987.779836)  can1  07773621   [8]  00 00 00 00 00 00 00 00
 (1659795987.780109)  can1  07773622   [8]  00 00 00 00 00 00 00 00
 (1659795987.780395)  can1  18000209   [8]  AB AA 02 00 00 00 00 00
 (1659795987.782696)  can1  18800401   [8]  01 36 88 16 88 B5 87 00
 (1659795987.782962)  can1  18840401   [8]  01 36 88 16 88 B5 87 00
 (1659795987.783244)  can1  18C00401   [8]  01 5D 30 7F 30 55 30 00
 (1659795987.822701)  can1  18800401   [8]  02 DB 87 DE 87 DF 87 00
 (1659795987.822967)  can1  18840401   [8]  02 DB 87 DE 87 DF 87 00
 (1659795987.823283)  can1  18C00401   [8]  02 79 30 53 30 7D 30 00
 (1659795987.866026)  can1  08041001   [8]  7E 03 00 3E FB DE 1B 00
 (1659795987.866281)  can1  18800401   [8]  03 E6 87 49 88 FB 87 00
 (1659795987.866568)  can1  18840401   [8]  03 E6 87 49 88 FB 87 00
 (1659795987.866832)  can1  18C00401   [8]  03 4D 30 62 30 4B 30 00
 (1659795987.879846)  can1  07773621   [8]  00 00 00 00 00 00 00 00
 (1659795987.880118)  can1  07773622   [8]  00 00 00 00 00 00 00 00
 (1659795987.880412)  can1  18000209   [8]  AB AA 02 00 00 00 00 00
 (1659795987.896729)  can1  08101201   [8]  00 00 75 88 81 87 01 00
 (1659795987.905726)  can1  18800401   [8]  04 87 87 CF 87 DA 87 00
 (1659795987.905979)  can1  18840401   [8]  04 87 87 CF 87 DA 87 00
 (1659795987.906255)  can1  18C00401   [8]  04 59 30 86 30 61 30 00
 (1659795987.951951)  can1  18800401   [8]  05 DA 87 D3 87 4A 88 00
 (1659795987.952199)  can1  18840401   [8]  05 DA 87 D3 87 4A 88 00
 (1659795987.952471)  can1  18C00401   [8]  05 93 30 57 30 9D 30 00
 (1659795987.976013)  can1  08041001   [8]  7E 03 00 3E FB DE 1B 00
 (1659795987.979855)  can1  07773621   [8]  00 00 00 00 00 00 00 00
 (1659795987.980126)  can1  07773622   [8]  00 00 00 00 00 00 00 00
 (1659795987.980412)  can1  18000209   [8]  AB AA 02 00 00 00 00 00
 (1659795987.991741)  can1  18800401   [8]  06 3A 88 DA 87 DC 87 00
 (1659795987.992011)  can1  18840401   [8]  06 3B 88 DB 87 DD 87 00
 (1659795987.992270)  can1  18C00401   [8]  06 64 30 95 30 58 30 00
 (1659795988.007466)  can1  08100302   [5]  00 0B 0A 00 01
 (1659795988.031749)  can1  18800401   [8]  07 CE 87 D3 87 9F 87 00
 (1659795988.032012)  can1  18840401   [8]  07 CF 87 D4 87 A0 87 00
 (1659795988.032316)  can1  18C00401   [8]  07 97 30 57 30 86 30 00
 (1659795988.063927)  can1  0404FF03   [1]  00
 (1659795988.072999)  can1  18800401   [8]  08 4C 88 23 88 A9 87 00
 (1659795988.073242)  can1  18840401   [8]  08 4D 88 24 88 AA 87 00
 (1659795988.073562)  can1  18C00401   [8]  08 52 30 7A 30 62 30 00
 (1659795988.079871)  can1  07773621   [8]  00 00 00 00 00 00 00 00
 (1659795988.080147)  can1  07773622   [8]  00 00 00 00 00 00 00 00
 (1659795988.080437)  can1  18000209   [8]  AB AA 02 00 00 00 00 00
 (1659795988.080844)  can1  0404FF07   [1]  00
 (1659795988.086076)  can1  08041001   [8]  7E 03 00 3E FB DE 1B 00
 (1659795988.107389)  can1  0404FF02   [1]  00
 (1659795988.112716)  can1  18800401   [8]  09 C7 87 C7 87 C7 87 00
 (1659795988.112963)  can1  18840401   [8]  09 C7 87 C7 87 C7 87 00
 (1659795988.113239)  can1  18C00401   [8]  09 94 30 72 30 B2 30 00
 (1659795988.146633)  can1  0404FF01   [1]  00
 (1659795988.152712)  can1  18800401   [8]  0A CE 87 44 88 38 88 00
 (1659795988.152958)  can1  18840401   [8]  0A CE 87 44 88 38 88 00
 (1659795988.153244)  can1  18C00401   [8]  0A 69 30 B7 30 74 30 00
 (1659795988.164007)  can1  18101203   [4]  6E 2E 75 01
 (1659795988.179876)  can1  07773621   [8]  00 00 00 00 00 00 00 00
 (1659795988.180140)  can1  07773622   [8]  00 00 00 00 00 00 00 00
 (1659795988.180427)  can1  18000209   [8]  AB AA 02 00 00 00 00 00
 (1659795988.196013)  can1  08041001   [8]  7C 03 00 3E FB DE 1B 00
 (1659795988.196503)  can1  18800401   [8]  0B D1 87 CF 87 CB 87 00
 (1659795988.196550)  can1  18840401   [8]  0B D1 87 CF 87 CB 87 00
 (1659795988.196842)  can1  18C00401   [8]  0B A9 30 7B 30 97 30 00
 (1659795988.235727)  can1  18800401   [8]  0C D2 87 D2 87 44 88 00
 (1659795988.235972)  can1  18840401   [8]  0C D2 87 D2 87 44 88 00
 (1659795988.236289)  can1  18C00401   [8]  0C 65 30 91 30 5E 30 00
 (1659795988.255658)  can1  080F1201   [4]  AE 10 00 00
 (1659795988.279880)  can1  07773621   [8]  00 00 00 00 00 00 00 00
 (1659795988.280149)  can1  07773622   [8]  00 00 00 00 00 00 00 00
 (1659795988.280461)  can1  18000209   [8]  AB AA 02 00 00 00 00 00
 (1659795988.281937)  can1  18800401   [8]  0D 2B 88 D8 87 EA 87 00
 (1659795988.282190)  can1  18840401   [8]  0D 2B 88 D8 87 EA 87 00
 (1659795988.282539)  can1  18C00401   [8]  0D 7C 30 52 30 8E 30 00
 (1659795988.306029)  can1  08041001   [8]  78 03 00 3E FB DE 1B 00
 (1659795988.321760)  can1  18800401   [8]  0E ED 87 EC 87 F1 87 00
 (1659795988.322009)  can1  18840401   [8]  0E ED 87 EC 87 F1 87 00
 (1659795988.322311)  can1  18C00401   [8]  0E 61 30 8F 30 6C 30 00
 (1659795988.361750)  can1  18800401   [8]  0F 61 88 56 88 74 88 00
 (1659795988.361995)  can1  18840401   [8]  0F 61 88 56 88 74 88 00
 (1659795988.362278)  can1  18C00401   [8]  0F A9 30 70 30 A0 30 00
 (1659795988.379885)  can1  07773621   [8]  00 00 00 00 00 00 00 00
 (1659795988.380158)  can1  07773622   [8]  00 00 00 00 00 00 00 00
 (1659795988.380444)  can1  18000209   [8]  AB AA 02 00 00 00 00 00
 (1659795988.398589)  can1  08101201   [8]  00 00 74 88 82 87 05 00
 (1659795988.402991)  can1  18800401   [8]  10 01 88 EC 87 F8 87 00
 (1659795988.403258)  can1  18840401   [8]  10 01 88 EC 87 F8 87 00
 (1659795988.403531)  can1  18C00401   [8]  10 65 30 8B 30 55 30 00
 (1659795988.416023)  can1  08041001   [8]  78 03 00 3E FB DE 1B 00
 (1659795988.442707)  can1  18800401   [8]  11 03 88 61 88 45 88 00
 (1659795988.442964)  can1  18840401   [8]  11 02 88 60 88 44 88 00
 (1659795988.443247)  can1  18C00401   [8]  11 87 30 7F 30 48 30 00
 (1659795988.479900)  can1  07773621   [8]  00 00 00 00 00 00 00 00
 (1659795988.480166)  can1  07773622   [8]  00 00 00 00 00 00 00 00
 (1659795988.480499)  can1  18000209   [8]  AB AA 02 00 00 00 00 00
 (1659795988.482703)  can1  18800401   [8]  12 9E 87 CB 87 BE 87 00
 (1659795988.482960)  can1  18840401   [8]  12 9D 87 CA 87 BD 87 00
 (1659795988.483237)  can1  18C00401   [8]  12 4D 30 8C 30 60 30 00
 (1659795988.526032)  can1  08041001   [8]  78 03 00 3E FB DE 1B 00
 (1659795988.526274)  can1  18800401   [8]  13 C5 87 C2 87 43 88 00
 (1659795988.526548)  can1  18840401   [8]  13 C5 87 C2 87 43 88 00
 (1659795988.526825)  can1  18C00401   [8]  13 9D 30 59 30 84 30 00
 (1659795988.565732)  can1  18800401   [8]  14 32 88 D1 87 C9 87 00
 (1659795988.565970)  can1  18840401   [8]  14 32 88 D1 87 C9 87 00
 (1659795988.566249)  can1  18C00401   [8]  14 56 30 8D 30 4C 30 00
 (1659795988.579898)  can1  07773621   [8]  00 00 00 00 00 00 00 00
 (1659795988.580170)  can1  07773622   [8]  00 00 00 00 00 00 00 00
 (1659795988.580458)  can1  18000209   [8]  AB AA 02 00 00 00 00 00
 (1659795988.611972)  can1  18800401   [8]  15 CA 87 CC 87 D1 87 00
 (1659795988.612201)  can1  18840401   [8]  15 CA 87 CC 87 D1 87 00
 (1659795988.612478)  can1  18C00401   [8]  15 79 30 59 30 76 30 00
 (1659795988.636022)  can1  08041001   [8]  78 03 00 3E FB DE 1B 00
 (1659795988.651921)  can1  18800401   [8]  16 45 88 31 88 00 00 00
 (1659795988.652013)  can1  18840401   [8]  16 46 88 32 88 00 00 00
 (1659795988.652723)  can1  18C00401   [8]  16 51 30 66 30 10 27 00
 (1659795988.663995)  can1  18101203   [4]  69 2E 8F 01
 (1659795988.679915)  can1  07773621   [8]  00 00 00 00 00 00 00 00
 (1659795988.680182)  can1  07773622   [8]  00 00 00 00 00 00 00 00
 (1659795988.680470)  can1  18000209   [8]  AB AA 02 00 00 00 00 00
 (1659795988.691763)  can1  18800401   [8]  00 9A 87 AB 87 82 87 00
 (1659795988.692005)  can1  18840401   [8]  00 9B 87 AC 87 83 87 00
 (1659795988.692285)  can1  18C00401   [8]  00 53 30 96 30 60 30 00
 (1659795988.707470)  can1  08100302   [5]  00 0B 0A 00 01
 (1659795988.732993)  can1  18800401   [8]  01 83 87 36 88 16 88 00
 (1659795988.733289)  can1  18840401   [8]  01 84 87 37 88 17 88 00
 (1659795988.733534)  can1  18C00401   [8]  01 9A 30 5D 30 7F 30 00
 (1659795988.746025)  can1  08041001   [8]  76 03 00 3E FB DE 1B 00
 (1659795988.772763)  can1  18800401   [8]  02 B4 87 DA 87 DD 87 00
 (1659795988.772962)  can1  18840401   [8]  02 B4 87 DA 87 DD 87 00
 (1659795988.773251)  can1  18C00401   [8]  02 55 30 79 30 53 30 00
 (1659795988.779905)  can1  07773621   [8]  00 00 00 00 00 00 00 00
 (1659795988.780189)  can1  07773622   [8]  00 00 00 00 00 00 00 00
 (1659795988.780493)  can1  18000209   [8]  AB AA 02 00 00 00 00 00
 (1659795988.812710)  can1  18800401   [8]  03 DF 87 E7 87 49 88 00
 (1659795988.812971)  can1  18840401   [8]  03 DF 87 E7 87 49 88 00
 (1659795988.813258)  can1  18C00401   [8]  03 7D 30 4C 30 62 30 00
 (1659795988.856024)  can1  08041001   [8]  76 03 F0 3D FB DE 1B 00
 (1659795988.856280)  can1  18800401   [8]  04 FB 87 84 87 CF 87 00
 (1659795988.856562)  can1  18840401   [8]  04 FB 87 84 87 CF 87 00
 (1659795988.856833)  can1  18C00401   [8]  04 4B 30 59 30 86 30 00
 (1659795988.879948)  can1  07773621   [8]  00 00 00 00 00 00 00 00
 (1659795988.880194)  can1  07773622   [8]  00 00 00 00 00 00 00 00
 (1659795988.880484)  can1  18000209   [8]  AB AA 02 00 00 00 00 00
 (1659795988.895728)  can1  18800401   [8]  05 DB 87 DA 87 D3 87 00
 (1659795988.895975)  can1  18840401   [8]  05 DB 87 DA 87 D3 87 00
 (1659795988.896251)  can1  18C00401   [8]  05 61 30 93 30 57 30 00
 (1659795988.898719)  can1  08101201   [8]  00 00 77 88 81 87 04 00
 (1659795988.941956)  can1  18800401   [8]  06 4A 88 39 88 DB 87 00
 (1659795988.942198)  can1  18840401   [8]  06 4A 88 39 88 DB 87 00
 (1659795988.942548)  can1  18C00401   [8]  06 9D 30 64 30 95 30 00
 (1659795988.966029)  can1  08041001   [8]  74 03 F0 3D FB DE 1B 00
 (1659795988.979929)  can1  07773621   [8]  00 00 00 00 00 00 00 00
 (1659795988.980205)  can1  07773622   [8]  00 00 00 00 00 00 00 00
 (1659795988.980515)  can1  18000209   [8]  AB AA 02 00 00 00 00 00
 (1659795988.981738)  can1  18800401   [8]  07 DC 87 CE 87 D4 87 00
 (1659795988.982016)  can1  18840401   [8]  07 DD 87 CF 87 D5 87 00
 (1659795988.982294)  can1  18C00401   [8]  07 58 30 97 30 57 30 00
 (1659795989.021759)  can1  18800401   [8]  08 9E 87 4C 88 23 88 00
 (1659795989.022006)  can1  18840401   [8]  08 9F 87 4D 88 24 88 00
 (1659795989.022286)  can1  18C00401   [8]  08 86 30 52 30 7A 30 00
 (1659795989.063001)  can1  18800401   [8]  09 A8 87 C7 87 C7 87 00
 (1659795989.063271)  can1  18840401   [8]  09 A9 87 C8 87 C8 87 00
 (1659795989.063529)  can1  18C00401   [8]  09 62 30 95 30 72 30 00
 (1659795989.063919)  can1  0404FF03   [1]  00
 (1659795989.076053)  can1  08041001   [8]  74 03 F0 3D FB DE 1B 00
 (1659795989.079976)  can1  07773621   [8]  00 00 00 00 00 00 00 00
 (1659795989.080232)  can1  07773622   [8]  00 00 00 00 00 00 00 00
 (1659795989.080518)  can1  18000209   [8]  AB AA 02 00 00 00 00 00
 (1659795989.080938)  can1  0404FF07   [1]  00
 (1659795989.102715)  can1  18800401   [8]  0A C7 87 CE 87 43 88 00
 (1659795989.102977)  can1  18840401   [8]  0A C8 87 CF 87 44 88 00
 (1659795989.103248)  can1  18C00401   [8]  0A B1 30 6A 30 B8 30 00
 (1659795989.107424)  can1  0404FF02   [1]  00
 (1659795989.142713)  can1  18800401   [8]  0B 37 88 D1 87 D0 87 00
 (1659795989.142966)  can1  18840401   [8]  0B 38 88 D2 87 D1 87 00
 (1659795989.143243)  can1  18C00401   [8]  0B 74 30 A9 30 7B 30 00
 (1659795989.146690)  can1  0404FF01   [1]  00
 (1659795989.164001)  can1  18101203   [4]  5F 2E 82 01
 (1659795989.179952)  can1  07773621   [8]  00 00 00 00 00 00 00 00
 (1659795989.180220)  can1  07773622   [8]  00 00 00 00 00 00 00 00
 (1659795989.180518)  can1  18000209   [8]  AB AA 02 00 00 00 00 00
 (1659795989.186037)  can1  08041001   [8]  74 03 F0 3D FB DE 1B 00
 (1659795989.186274)  can1  18800401   [8]  0C CC 87 D1 87 D3 87 00
 (1659795989.186604)  can1  18840401   [8]  0C CD 87 D2 87 D4 87 00
 (1659795989.186826)  can1  18C00401   [8]  0C 97 30 65 30 91 30 00
 (1659795989.225733)  can1  18800401   [8]  0D 45 88 2B 88 D9 87 00
 (1659795989.225974)  can1  18840401   [8]  0D 46 88 2C 88 DA 87 00
 (1659795989.226255)  can1  18C00401   [8]  0D 5E 30 7C 30 52 30 00
 (1659795989.255695)  can1  080F1201   [4]  4A 10 00 00
 (1659795989.271960)  can1  18800401   [8]  0E EA 87 ED 87 EE 87 00
 (1659795989.272211)  can1  18840401   [8]  0E EB 87 EE 87 EF 87 00
 (1659795989.272489)  can1  18C00401   [8]  0E 8E 30 61 30 90 30 00
 (1659795989.279973)  can1  07773621   [8]  00 00 00 00 00 00 00 00
 (1659795989.280229)  can1  07773622   [8]  00 00 00 00 00 00 00 00
 (1659795989.280517)  can1  18000209   [8]  AB AA 02 00 00 00 00 00
 (1659795989.296033)  can1  08041001   [8]  74 03 F0 3D FB DE 1B 00
 (1659795989.311754)  can1  18800401   [8]  0F F1 87 61 88 54 88 00
 (1659795989.312008)  can1  18840401   [8]  0F F2 87 62 88 55 88 00
 (1659795989.312284)  can1  18C00401   [8]  0F 6C 30 A9 30 6F 30 00
 (1659795989.351762)  can1  18800401   [8]  10 76 88 01 88 ED 87 00
 (1659795989.352006)  can1  18840401   [8]  10 77 88 02 88 EE 87 00
 (1659795989.352285)  can1  18C00401   [8]  10 A0 30 65 30 8B 30 00
 (1659795989.379971)  can1  07773621   [8]  00 00 00 00 00 00 00 00
 (1659795989.380239)  can1  07773622   [8]  00 00 00 00 00 00 00 00
 (1659795989.380522)  can1  18000209   [8]  AB AA 02 00 00 00 00 00
 (1659795989.393008)  can1  18800401   [8]  11 F8 87 04 88 61 88 00
 (1659795989.393260)  can1  18840401   [8]  11 F9 87 05 88 62 88 00
 (1659795989.393536)  can1  18C00401   [8]  11 55 30 87 30 7F 30 00
 (1659795989.400541)  can1  08101201   [8]  00 00 76 88 82 87 01 00
 (1659795989.406070)  can1  08041001   [8]  70 03 F0 3D FB DE 1B 00
 (1659795989.407464)  can1  08100302   [5]  00 0B 0A 00 01
 (1659795989.432723)  can1  18800401   [8]  12 45 88 A0 87 CB 87 00
 (1659795989.432972)  can1  18840401   [8]  12 45 88 A0 87 CB 87 00
 (1659795989.433250)  can1  18C00401   [8]  12 48 30 4D 30 8C 30 00
 (1659795989.472737)  can1  18800401   [8]  13 C0 87 C4 87 C2 87 00
 (1659795989.472985)  can1  18840401   [8]  13 C0 87 C4 87 C2 87 00
 (1659795989.473263)  can1  18C00401   [8]  13 60 30 9D 30 59 30 00
 (1659795989.479982)  can1  07773621   [8]  00 00 00 00 00 00 00 00
 (1659795989.480246)  can1  07773622   [8]  00 00 00 00 00 00 00 00
 (1659795989.480564)  can1  18000209   [8]  AB AA 02 00 00 00 00 00
 (1659795989.516028)  can1  08041001   [8]  70 03 F0 3D FB DE 1B 00
 (1659795989.516276)  can1  18800401   [8]  14 44 88 33 88 D1 87 00
 (1659795989.516588)  can1  18840401   [8]  14 45 88 34 88 D2 87 00
 (1659795989.516826)  can1  18C00401   [8]  14 84 30 56 30 8D 30 00
 (1659795989.555731)  can1  18800401   [8]  15 CC 87 C8 87 CB 87 00
 (1659795989.555978)  can1  18840401   [8]  15 CD 87 C9 87 CC 87 00
 (1659795989.556254)  can1  18C00401   [8]  15 4C 30 79 30 5A 30 00
 (1659795989.580031)  can1  07773621   [8]  00 00 00 00 00 00 00 00
 (1659795989.580252)  can1  07773622   [8]  00 00 00 00 00 00 00 00
 (1659795989.580539)  can1  18000209   [8]  AB AA 02 00 00 00 00 00
 (1659795989.601964)  can1  18800401   [8]  16 D0 87 45 88 31 88 00
 (1659795989.602200)  can1  18840401   [8]  16 D1 87 46 88 32 88 00
 (1659795989.602571)  can1  18C00401   [8]  16 76 30 51 30 66 30 00
 (1659795989.626040)  can1  08041001   [8]  70 03 F0 3D FB DE 1B 00
 (1659795989.641751)  can1  18800401   [8]  00 DE 87 9B 87 AD 87 00
 (1659795989.642011)  can1  18840401   [8]  00 DE 87 9B 87 AD 87 00
 (1659795989.642285)  can1  18C00401   [8]  00 8A 30 53 30 96 30 00
 (1659795989.663997)  can1  18101203   [4]  5F 2E 86 01
 (1659795989.679995)  can1  07773621   [8]  00 00 00 00 00 00 00 00
 (1659795989.680264)  can1  07773622   [8]  00 00 00 00 00 00 00 00
 (1659795989.680577)  can1  18000209   [8]  AB AA 02 00 00 00 00 00
 (1659795989.681975)  can1  18800401   [8]  01 82 87 84 87 37 88 00
 (1659795989.682020)  can1  18840401   [8]  01 82 87 84 87 37 88 00
 (1659795989.682302)  can1  18C00401   [8]  01 60 30 9A 30 5D 30 00
 (1659795989.723004)  can1  18800401   [8]  02 18 88 B3 87 DB 87 00
 (1659795989.723256)  can1  18840401   [8]  02 18 88 B3 87 DB 87 00
 (1659795989.723537)  can1  18C00401   [8]  02 7F 30 55 30 78 30 00
 (1659795989.736028)  can1  08041001   [8]  6E 03 F0 3D FB DE 1B 00
 (1659795989.762721)  can1  18800401   [8]  03 DF 87 DF 87 E7 87 00
 (1659795989.762980)  can1  18840401   [8]  03 DF 87 DF 87 E7 87 00
 (1659795989.763262)  can1  18C00401   [8]  03 53 30 7D 30 4C 30 00
 (1659795989.780000)  can1  07773621   [8]  00 00 00 00 00 00 00 00
 (1659795989.780267)  can1  07773622   [8]  00 00 00 00 00 00 00 00
 (1659795989.780596)  can1  18000209   [8]  AB AA 02 00 00 00 00 00
 (1659795989.802714)  can1  18800401   [8]  04 49 88 FB 87 87 87 00
 (1659795989.802971)  can1  18840401   [8]  04 49 88 FB 87 87 87 00
 (1659795989.803285)  can1  18C00401   [8]  04 62 30 4B 30 59 30 00
 (1659795989.846031)  can1  08041001   [8]  6E 03 F0 3D FB DE 1B 00
 (1659795989.846296)  can1  18800401   [8]  05 CF 87 DB 87 DA 87 00
 (1659795989.846562)  can1  18840401   [8]  05 D0 87 DC 87 DB 87 00
 (1659795989.846832)  can1  18C00401   [8]  05 86 30 61 30 93 30 00
 (1659795989.879996)  can1  07773621   [8]  00 00 00 00 00 00 00 00
 (1659795989.880282)  can1  07773622   [8]  00 00 00 00 00 00 00 00
 (1659795989.880593)  can1  18000209   [8]  AB AA 02 00 00 00 00 00
 (1659795989.885738)  can1  18800401   [8]  06 D2 87 4A 88 3B 88 00
 (1659795989.885985)  can1  18840401   [8]  06 D3 87 4B 88 3C 88 00
 (1659795989.886259)  can1  18C00401   [8]  06 57 30 9D 30 64 30 00
 (1659795989.900732)  can1  08101201   [8]  00 00 74 88 83 87 04 00
 (1659795989.931978)  can1  18800401   [8]  07 D9 87 DC 87 CE 87 00
 (1659795989.932215)  can1  18840401   [8]  07 DA 87 DD 87 CF 87 00
 (1659795989.932495)  can1  18C00401   [8]  07 95 30 58 30 97 30 00
 (1659795989.956030)  can1  08041001   [8]  6C 03 F0 3D FB DE 1B 00
 (1659795989.971768)  can1  18800401   [8]  08 D3 87 9F 87 4C 88 00
 (1659795989.972019)  can1  18840401   [8]  08 D3 87 9F 87 4C 88 00
 (1659795989.972287)  can1  18C00401   [8]  08 57 30 86 30 52 30 00
 (1659795989.980020)  can1  07773621   [8]  00 00 00 00 00 00 00 00
 (1659795989.980288)  can1  07773622   [8]  00 00 00 00 00 00 00 00
 (1659795989.980573)  can1  18000209   [8]  AB AA 02 00 00 00 00 00
 (1659795990.011756)  can1  18800401   [8]  09 23 88 A5 87 C7 87 00
 (1659795990.012013)  can1  18840401   [8]  09 23 88 A5 87 C7 87 00
 (1659795990.012282)  can1  18C00401   [8]  09 7A 30 62 30 95 30 00
 (1659795990.053049)  can1  18800401   [8]  0A C7 87 C7 87 CE 87 00
 (1659795990.053288)  can1  18840401   [8]  0A C7 87 C7 87 CE 87 00
 (1659795990.053529)  can1  18C00401   [8]  0A 72 30 B1 30 6A 30 00
 (1659795990.063955)  can1  0404FF03   [1]  00
 (1659795990.066033)  can1  08041001   [8]  6C 03 F0 3D FB DE 1B 00
 (1659795990.080040)  can1  07773621   [8]  00 00 00 00 00 00 00 00
 (1659795990.080312)  can1  07773622   [8]  00 00 00 00 00 00 00 00
 (1659795990.080614)  can1  18000209   [8]  AB AA 02 00 00 00 00 00
 (1659795990.080970)  can1  0404FF07   [1]  00
 (1659795990.092796)  can1  18800401   [8]  0B 44 88 35 88 D2 87 00
 (1659795990.092966)  can1  18840401   [8]  0B 44 88 35 88 D2 87 00
 (1659795990.093266)  can1  18C00401   [8]  0B B8 30 74 30 A9 30 00
 (1659795990.107419)  can1  0404FF02   [1]  00
 (1659795990.107600)  can1  08100302   [5]  00 0B 0A 00 01
 (1659795990.132735)  can1  18800401   [8]  0C CF 87 CB 87 D1 87 00
 (1659795990.132985)  can1  18840401   [8]  0C CF 87 CB 87 D1 87 00
 (1659795990.133479)  can1  18C00401   [8]  0C 7B 30 97 30 65 30 00
 (1659795990.147586)  can1  0404FF01   [1]  00
 (1659795990.164013)  can1  18101203   [4]  5F 2E 8F 01
 (1659795990.176033)  can1  08041001   [8]  6C 03 F0 3D FB DE 1B 00
 (1659795990.176281)  can1  18800401   [8]  0D D2 87 44 88 2B 88 00
 (1659795990.176558)  can1  18840401   [8]  0D D3 87 45 88 2C 88 00
 (1659795990.176837)  can1  18C00401   [8]  0D 91 30 5E 30 7C 30 00
 (1659795990.180024)  can1  07773621   [8]  00 00 00 00 00 00 00 00
 (1659795990.180302)  can1  07773622   [8]  00 00 00 00 00 00 00 00
 (1659795990.180592)  can1  18000209   [8]  AB AA 02 00 00 00 00 00
 (1659795990.215746)  can1  18800401   [8]  0E D7 87 E9 87 ED 87 00
 (1659795990.215993)  can1  18840401   [8]  0E D8 87 EA 87 EE 87 00
 (1659795990.216271)  can1  18C00401   [8]  0E 52 30 8E 30 61 30 00
 (1659795990.261893)  can1  080F1201   [4]  C6 11 00 00
 (1659795990.262153)  can1  18800401   [8]  0F ED 87 F1 87 62 88 00
 (1659795990.262550)  can1  18840401   [8]  0F EE 87 F2 87 63 88 00
 (1659795990.262703)  can1  18C00401   [8]  0F 8F 30 6C 30 A9 30 00
 (1659795990.280030)  can1  07773621   [8]  00 00 00 00 00 00 00 00
 (1659795990.280311)  can1  07773622   [8]  00 00 00 00 00 00 00 00
 (1659795990.280594)  can1  18000209   [8]  AB AA 02 00 00 00 00 00
 (1659795990.286016)  can1  08041001   [8]  6C 03 F0 3D FB DE 1B 00
 (1659795990.301761)  can1  18800401   [8]  10 55 88 75 88 02 88 00
 (1659795990.302018)  can1  18840401   [8]  10 55 88 75 88 02 88 00
 (1659795990.302298)  can1  18C00401   [8]  10 6F 30 A0 30 65 30 00
 (1659795990.341755)  can1  18800401   [8]  11 EC 87 F8 87 04 88 00
 (1659795990.342018)  can1  18840401   [8]  11 EC 87 F8 87 04 88 00
 (1659795990.342339)  can1  18C00401   [8]  11 8B 30 55 30 87 30 00
 (1659795990.380045)  can1  07773621   [8]  00 00 00 00 00 00 00 00
 (1659795990.380320)  can1  07773622   [8]  00 00 00 00 00 00 00 00
 (1659795990.380598)  can1  18000209   [8]  AB AA 02 00 00 00 00 00
 (1659795990.383025)  can1  18800401   [8]  12 61 88 44 88 A0 87 00
 (1659795990.383259)  can1  18840401   [8]  12 61 88 44 88 A0 87 00
 (1659795990.383540)  can1  18C00401   [8]  12 7F 30 48 30 4E 30 00
 (1659795990.396026)  can1  08041001   [8]  6A 03 F0 3D FB DE 1B 00
 (1659795990.401757)  can1  08101201   [8]  00 00 76 88 81 87 03 00
 (1659795990.422720)  can1  18800401   [8]  13 CC 87 C1 87 C5 87 00
 (1659795990.422986)  can1  18840401   [8]  13 CC 87 C1 87 C5 87 00
 (1659795990.423263)  can1  18C00401   [8]  13 8C 30 60 30 9D 30 00
 (1659795990.462732)  can1  18800401   [8]  14 C4 87 43 88 33 88 00
 (1659795990.462980)  can1  18840401   [8]  14 C4 87 43 88 33 88 00
 (1659795990.463254)  can1  18C00401   [8]  14 59 30 84 30 56 30 00
 (1659795990.480051)  can1  07773621   [8]  00 00 00 00 00 00 00 00
 (1659795990.480327)  can1  07773622   [8]  00 00 00 00 00 00 00 00
 (1659795990.480641)  can1  18000209   [8]  AB AA 02 00 00 00 00 00
 (1659795990.506054)  can1  08041001   [8]  6A 03 F0 3D FB DE 1B 00
 (1659795990.506284)  can1  18800401   [8]  15 D1 87 CD 87 C8 87 00
 (1659795990.506555)  can1  18840401   [8]  15 D1 87 CD 87 C8 87 00
 (1659795990.506837)  can1  18C00401   [8]  15 8D 30 4C 30 79 30 00
 (1659795990.545731)  can1  18800401   [8]  16 CB 87 D0 87 46 88 00
 (1659795990.545987)  can1  18840401   [8]  16 CB 87 D0 87 46 88 00
 (1659795990.546261)  can1  18C00401   [8]  16 5A 30 76 30 51 30 00
 (1659795990.580065)  can1  07773621   [8]  00 00 00 00 00 00 00 00
 (1659795990.580337)  can1  07773622   [8]  00 00 00 00 00 00 00 00
 (1659795990.580645)  can1  18000209   [8]  AB AA 02 00 00 00 00 00
 (1659795990.591958)  can1  18800401   [8]  17 31 88 00 00 00 00 00
 (1659795990.592235)  can1  18840401   [8]  17 31 88 00 00 00 00 00
 (1659795990.592521)  can1  18C00401   [8]  17 66 30 10 27 10 27 00
 (1659795990.616033)  can1  08041001   [8]  6A 03 F0 3D FB DE 1B 00
 (1659795990.631757)  can1  18800401   [8]  00 AD 87 82 87 84 87 00
 (1659795990.632018)  can1  18840401   [8]  00 AD 87 82 87 84 87 00
 (1659795990.632293)  can1  18C00401   [8]  00 97 30 60 30 9A 30 00
 (1659795990.664011)  can1  18101203   [4]  69 2E 94 01
 (1659795990.671762)  can1  18800401   [8]  01 36 88 17 88 B4 87 00
 (1659795990.672017)  can1  18840401   [8]  01 36 88 17 88 B4 87 00
 (1659795990.672297)  can1  18C00401   [8]  01 5D 30 7F 30 55 30 00
 (1659795990.680073)  can1  07773621   [8]  00 00 00 00 00 00 00 00
 (1659795990.680378)  can1  07773622   [8]  00 00 00 00 00 00 00 00
 (1659795990.680650)  can1  18000209   [8]  AB AA 02 00 00 00 00 00
 (1659795990.713024)  can1  18800401   [8]  02 DB 87 DF 87 DE 87 00
 (1659795990.713289)  can1  18840401   [8]  02 DB 87 DF 87 DE 87 00
 (1659795990.713595)  can1  18C00401   [8]  02 78 30 53 30 7D 30 00
 (1659795990.726025)  can1  08041001   [8]  68 03 F0 3D FB DE 1B 00
 (1659795990.752737)  can1  18800401   [8]  03 E8 87 49 88 FC 87 00
 (1659795990.752982)  can1  18840401   [8]  03 E9 87 4A 88 FD 87 00
 (1659795990.753259)  can1  18C00401   [8]  03 4C 30 62 30 4B 30 00
 (1659795990.780449)  can1  07773621   [8]  00 00 00 00 00 00 00 00
 (1659795990.780511)  can1  07773622   [8]  00 00 00 00 00 00 00 00
 (1659795990.780659)  can1  18000209   [8]  AB AA 02 00 00 00 00 00
 (1659795990.792731)  can1  18800401   [8]  04 89 87 CF 87 DB 87 00
 (1659795990.792984)  can1  18840401   [8]  04 8A 87 D0 87 DC 87 00
 (1659795990.793261)  can1  18C00401   [8]  04 59 30 86 30 61 30 00
 (1659795990.807468)  can1  08100302   [5]  00 0B 0A 00 01
 (1659795990.836029)  can1  08041001   [8]  68 03 F0 3D FB DE 1B 00
 (1659795990.836289)  can1  18800401   [8]  05 DA 87 D2 87 4A 88 00
 (1659795990.836598)  can1  18840401   [8]  05 DA 87 D2 87 4A 88 00
 (1659795990.836836)  can1  18C00401   [8]  05 93 30 57 30 9D 30 00
 (1659795990.875736)  can1  18800401   [8]  06 3A 88 DA 87 DC 87 00
 (1659795990.875985)  can1  18840401   [8]  06 3A 88 DA 87 DC 87 00
 (1659795990.876261)  can1  18C00401   [8]  06 64 30 95 30 58 30 00
 (1659795990.880119)  can1  07773621   [8]  00 00 00 00 00 00 00 00
 (1659795990.880359)  can1  07773622   [8]  00 00 00 00 00 00 00 00
 (1659795990.880644)  can1  18000209   [8]  AB AA 02 00 00 00 00 00
 (1659795990.902724)  can1  08101201   [8]  00 00 76 88 82 87 03 00
 (1659795990.921965)  can1  18800401   [8]  07 CE 87 D4 87 A0 87 00
 (1659795990.922221)  can1  18840401   [8]  07 CE 87 D4 87 A0 87 00
 (1659795990.922531)  can1  18C00401   [8]  07 97 30 57 30 86 30 00
 (1659795990.946048)  can1  08041001   [8]  64 03 F0 3D FB DE 1B 00
 (1659795990.961762)  can1  18800401   [8]  08 4C 88 22 88 A9 87 00
 (1659795990.962021)  can1  18840401   [8]  08 4C 88 22 88 A9 87 00
 (1659795990.962298)  can1  18C00401   [8]  08 52 30 7A 30 62 30 00
 (1659795990.980109)  can1  07773621   [8]  00 00 00 00 00 00 00 00
 (1659795990.980366)  can1  07773622   [8]  00 00 00 00 00 00 00 00
 (1659795990.980652)  can1  18000209   [8]  AB AA 02 00 00 00 00 00
 (1659795991.001769)  can1  18800401   [8]  09 C7 87 C6 87 C8 87 00
 (1659795991.002021)  can1  18840401   [8]  09 C7 87 C6 87 C8 87 00
 (1659795991.002293)  can1  18C00401   [8]  09 95 30 72 30 B2 30 00
 (1659795991.043012)  can1  18800401   [8]  0A CE 87 44 88 36 88 00
 (1659795991.043267)  can1  18840401   [8]  0A CE 87 44 88 36 88 00
 (1659795991.043544)  can1  18C00401   [8]  0A 6A 30 B8 30 74 30 00
 (1659795991.056045)  can1  08041001   [8]  64 03 F0 3D FB DE 1B 00
 (1659795991.063979)  can1  0404FF03   [1]  00
 (1659795991.080112)  can1  07773621   [8]  00 00 00 00 00 00 00 00
 (1659795991.080395)  can1  07773622   [8]  00 00 00 00 00 00 00 00
 (1659795991.080766)  can1  18000209   [8]  AB AA 02 00 00 00 00 00
 (1659795991.081033)  can1  0404FF07   [1]  00
 (1659795991.082721)  can1  18800401   [8]  0B D1 87 D0 87 CB 87 00
 (1659795991.083010)  can1  18840401   [8]  0B D1 87 D0 87 CB 87 00
 (1659795991.083260)  can1  18C00401   [8]  0B A9 30 7B 30 97 30 00
 (1659795991.107390)  can1  0404FF02   [1]  00
 (1659795991.122726)  can1  18800401   [8]  0C D1 87 D3 87 44 88 00
 (1659795991.122985)  can1  18840401   [8]  0C D1 87 D3 87 44 88 00
 (1659795991.123283)  can1  18C00401   [8]  0C 64 30 91 30 5E 30 00
 (1659795991.147578)  can1  0404FF01   [1]  00
 (1659795991.164014)  can1  18101203   [4]  64 2E 8B 01
 (1659795991.166086)  can1  08041001   [8]  62 03 F0 3D FB DE 1B 00
 (1659795991.166299)  can1  18800401   [8]  0D 2B 88 D9 87 EA 87 00
 (1659795991.166569)  can1  18840401   [8]  0D 2B 88 D9 87 EA 87 00
 (1659795991.166846)  can1  18C00401   [8]  0D 7C 30 52 30 8E 30 00
 (1659795991.180107)  can1  07773621   [8]  00 00 00 00 00 00 00 00
 (1659795991.180398)  can1  07773622   [8]  00 00 00 00 00 00 00 00
 (1659795991.180670)  can1  18000209   [8]  AB AA 02 00 00 00 00 00
 (1659795991.205729)  can1  18800401   [8]  0E EE 87 ED 87 F1 87 00
 (1659795991.205992)  can1  18840401   [8]  0E EE 87 ED 87 F1 87 00
 (1659795991.206271)  can1  18C00401   [8]  0E 61 30 8F 30 6C 30 00
 (1659795991.251958)  can1  18800401   [8]  0F 61 88 56 88 74 88 00
 (1659795991.252209)  can1  18840401   [8]  0F 61 88 56 88 74 88 00
 (1659795991.252494)  can1  18C00401   [8]  0F A9 30 70 30 A0 30 00
 (1659795991.262944)  can1  080F1201   [4]  62 11 00 00
 (1659795991.276036)  can1  08041001   [8]  62 03 F0 3D FB DE 1B 00
 (1659795991.280111)  can1  07773621   [8]  00 00 00 00 00 00 00 00
 (1659795991.280428)  can1  07773622   [8]  00 00 00 00 00 00 00 00
 (1659795991.280682)  can1  18000209   [8]  AB AA 02 00 00 00 00 00
 (1659795991.291777)  can1  18800401   [8]  10 02 88 EC 87 F8 87 00
 (1659795991.292032)  can1  18840401   [8]  10 02 88 EC 87 F8 87 00
 (1659795991.292310)  can1  18C00401   [8]  10 65 30 8B 30 55 30 00
 (1659795991.331767)  can1  18800401   [8]  11 04 88 61 88 45 88 00
 (1659795991.332033)  can1  18840401   [8]  11 04 88 61 88 45 88 00
 (1659795991.332304)  can1  18C00401   [8]  11 87 30 7F 30 48 30 00
 (1659795991.373017)  can1  18800401   [8]  12 A1 87 CA 87 C3 87 00
 (1659795991.373277)  can1  18840401   [8]  12 A1 87 CA 87 C3 87 00
 (1659795991.373554)  can1  18C00401   [8]  12 4E 30 8C 30 60 30 00
 (1659795991.380121)  can1  07773621   [8]  00 00 00 00 00 00 00 00
 (1659795991.380403)  can1  07773622   [8]  00 00 00 00 00 00 00 00
 (1659795991.380686)  can1  18000209   [8]  AB AA 02 00 00 00 00 00
 (1659795991.386035)  can1  08041001   [8]  62 03 F0 3D FB DE 1B 00
 (1659795991.403728)  can1  08101201   [8]  00 00 74 88 83 87 02 00
 (1659795991.412733)  can1  18800401   [8]  13 C8 87 BC 87 44 88 00
 (1659795991.412978)  can1  18840401   [8]  13 C9 87 BD 87 45 88 00
 (1659795991.413259)  can1  18C00401   [8]  13 9D 30 59 30 84 30 00
 (1659795991.452731)  can1  18800401   [8]  14 36 88 D0 87 CA 87 00
 (1659795991.452975)  can1  18840401   [8]  14 37 88 D1 87 CB 87 00
 (1659795991.453255)  can1  18C00401   [8]  14 56 30 8D 30 4C 30 00
 (1659795991.480147)  can1  07773621   [8]  00 00 00 00 00 00 00 00
 (1659795991.480411)  can1  07773622   [8]  00 00 00 00 00 00 00 00
 (1659795991.480769)  can1  18000209   [8]  AB AA 02 00 00 00 00 00
 (1659795991.496041)  can1  08041001   [8]  62 03 F0 3D FB DE 1B 00
 (1659795991.496294)  can1  18800401   [8]  15 C9 87 CB 87 CF 87 00
 (1659795991.496572)  can1  18840401   [8]  15 CA 87 CC 87 D0 87 00
 (1659795991.496850)  can1  18C00401   [8]  15 79 30 59 30 76 30 00
 (1659795991.507474)  can1  08100302   [5]  00 0B 0A 00 01
 (1659795991.535746)  can1  18800401   [8]  16 45 88 31 88 00 00 00
 (1659795991.536009)  can1  18840401   [8]  16 46 88 32 88 00 00 00
 (1659795991.536285)  can1  18C00401   [8]  16 51 30 66 30 10 27 00
 (1659795991.580166)  can1  07773621   [8]  00 00 00 00 00 00 00 00
 (1659795991.580411)  can1  07773622   [8]  00 00 00 00 00 00 00 00
 (1659795991.580699)  can1  18000209   [8]  AB AA 02 00 00 00 00 00
 (1659795991.581954)  can1  18800401   [8]  00 9B 87 AC 87 82 87 00
 (1659795991.582221)  can1  18840401   [8]  00 9C 87 AD 87 83 87 00
 (1659795991.582530)  can1  18C00401   [8]  00 54 30 97 30 60 30 00
 (1659795991.606039)  can1  08041001   [8]  60 03 F0 3D FB DE 1B 00
 (1659795991.621767)  can1  18800401   [8]  01 83 87 36 88 16 88 00
 (1659795991.622030)  can1  18840401   [8]  01 84 87 37 88 17 88 00
 (1659795991.622337)  can1  18C00401   [8]  01 9A 30 5D 30 7F 30 00
 (1659795991.661767)  can1  18800401   [8]  02 B5 87 DB 87 DE 87 00
 (1659795991.662030)  can1  18840401   [8]  02 B6 87 DC 87 DF 87 00
 (1659795991.662360)  can1  18C00401   [8]  02 55 30 78 30 53 30 00
 (1659795991.664008)  can1  18101203   [4]  69 2E 8B 01
 (1659795991.680141)  can1  07773621   [8]  00 00 00 00 00 00 00 00
 (1659795991.680425)  can1  07773622   [8]  00 00 00 00 00 00 00 00
 (1659795991.680737)  can1  18000209   [8]  AB AA 02 00 00 00 00 00
 (1659795991.703038)  can1  18800401   [8]  03 E0 87 E7 87 49 88 00
 (1659795991.703302)  can1  18840401   [8]  03 E1 87 E8 87 4A 88 00
 (1659795991.703561)  can1  18C00401   [8]  03 7D 30 4C 30 62 30 00
 (1659795991.716034)  can1  08041001   [8]  60 03 F0 3D FB DE 1B 00
 (1659795991.742738)  can1  18800401   [8]  04 FC 87 85 87 CF 87 00
 (1659795991.742995)  can1  18840401   [8]  04 FC 87 85 87 CF 87 00
 (1659795991.743269)  can1  18C00401   [8]  04 4B 30 59 30 86 30 00
 (1659795991.780170)  can1  07773621   [8]  00 00 00 00 00 00 00 00
 (1659795991.780433)  can1  07773622   [8]  00 00 00 00 00 00 00 00
 (1659795991.780721)  can1  18000209   [8]  AB AA 02 00 00 00 00 00
 (1659795991.782777)  can1  18800401   [8]  05 DB 87 DA 87 D3 87 00
 (1659795991.782988)  can1  18840401   [8]  05 DB 87 DA 87 D3 87 00
 (1659795991.783266)  can1  18C00401   [8]  05 61 30 93 30 57 30 00
 (1659795991.826033)  can1  08041001   [8]  5A 03 F0 3D FB DE 1B 00
 (1659795991.826292)  can1  18800401   [8]  06 4A 88 3B 88 DA 87 00
 (1659795991.826561)  can1  18840401   [8]  06 4B 88 3C 88 DB 87 00
 (1659795991.826849)  can1  18C00401   [8]  06 9D 30 64 30 95 30 00
 (1659795991.865740)  can1  18800401   [8]  07 DC 87 CE 87 D4 87 00
 (1659795991.866006)  can1  18840401   [8]  07 DD 87 CF 87 D5 87 00
 (1659795991.866280)  can1  18C00401   [8]  07 58 30 97 30 57 30 00
